! Touchstone file generated by RF Tool Suite
# Hz S RI R 50
1000000 -0.0042423270895130295 -0.07281155867415864 0.9911308332178315 -0.06719498554402929 0.9911308332178315 -0.06719498554402929 -0.0042423270895130295 -0.07281155867415864
4002002 -0.08035497837583777 -0.2595577312620349 0.9208231471589543 -0.2602061517579782 0.9208231471589543 -0.2602061517579782 -0.08035497837583777 -0.2595577312620349
7004004 -0.2035018698175077 -0.3884796840499846 0.7964058675486645 -0.3911285032418659 0.7964058675486645 -0.3911285032418659 -0.2035018698175077 -0.3884796840499846
10006006 -0.33691650465235395 -0.45717475919138534 0.6617150232824216 -0.45985152006597574 0.6617150232824216 -0.45985152006597574 -0.33691650465235395 -0.45717475919138534
13008008 -0.4566287911362151 -0.48112560439836366 0.5400457609749255 -0.4831619078241992 0.5400457609749255 -0.4831619078241992 -0.4566287911362151 -0.48112560439836366
16010010 -0.5562565585427233 -0.47921185212891254 0.4401699989729254 -0.4800459436768543 0.4401699989729254 -0.4800459436768543 -0.5562565585427233 -0.47921185212891254
19012012 -0.6354343755706183 -0.462560802712396 0.35428912915568295 -0.4624071400450792 0.35428912915568295 -0.4624071400450792 -0.6354343755706183 -0.462560802712396
22014014 -0.6979711270614817 -0.4398326451357943 0.2926432171342091 -0.43793048044017124 0.2926432171342091 -0.43793048044017124 -0.6979711270614817 -0.4398326451357943
25016016 -0.7469687024646341 -0.41486996008963334 0.2441246887178963 -0.41154375703137186 0.2441246887178963 -0.41154375703137186 -0.7469687024646341 -0.41486996008963334
28018018 -0.7863189029793417 -0.3897871162370575 0.20596057650670363 -0.38520969879286 0.20596057650670363 -0.38520969879286 -0.7863189029793417 -0.3897871162370575
31020020 -0.8180779333482717 -0.36567521053520874 0.1753069816979906 -0.36028031700360696 0.1753069816979906 -0.36028031700360696 -0.8180779333482717 -0.36567521053520874
34022022 -0.8432458503429618 -0.3427447706881001 0.15077004598506344 -0.3367109703999041 0.15077004598506344 -0.3367109703999041 -0.8432458503429618 -0.3427447706881001
37024024 -0.8643612936241083 -0.32127770275472955 0.13079494755069868 -0.3150779372656709 0.13079494755069868 -0.3150779372656709 -0.8643612936241083 -0.32127770275472955
40026026 -0.8817837007589147 -0.3020546451927773 0.11301515158085461 -0.29571393259313156 0.11301515158085461 -0.29571393259313156 -0.8817837007589147 -0.3020546451927773
43028028 -0.8961874132237126 -0.2835121174659768 0.09928939826467942 -0.2769402241166784 0.09928939826467942 -0.2769402241166784 -0.8961874132237126 -0.2835121174659768
46030030 -0.9084823310166591 -0.2663454873689065 0.08793096167441299 -0.2598808028172407 0.08793096167441299 -0.2598808028172407 -0.9084823310166591 -0.2663454873689065
49032032 -0.9197793753427675 -0.25123280558182765 0.07824944889573449 -0.2442605739723908 0.07824944889573449 -0.2442605739723908 -0.9197793753427675 -0.25123280558182765
52034034 -0.9283897698773964 -0.23689821435671807 0.06987615644410627 -0.22983418672823513 0.06987615644410627 -0.22983418672823513 -0.9283897698773964 -0.23689821435671807
55036036 -0.9364837810960396 -0.22348216181956723 0.06285378409146887 -0.21642309163511445 0.06285378409146887 -0.21642309163511445 -0.9364837810960396 -0.22348216181956723
58038038 -0.9435558168143658 -0.2111768076440034 0.05682494349882092 -0.20383449467238526 0.05682494349882092 -0.20383449467238526 -0.9435558168143658 -0.2111768076440034
61040040 -0.949561773343981 -0.19919742368111165 0.05160553729346556 -0.19212754072543067 0.05160553729346556 -0.19212754072543067 -0.949561773343981 -0.19919742368111165
64042042 -0.9543265743802124 -0.18823111189180794 0.04702664610910335 -0.18130162563749225 0.04702664610910335 -0.18130162563749225 -0.9543265743802124 -0.18823111189180794
67044044 -0.9593521212217663 -0.17744142806131785 0.04324982520732893 -0.17012258685768766 0.04324982520732893 -0.17012258685768766 -0.9593521212217663 -0.17744142806131785
70046046 -0.9631054813425326 -0.1677604591118337 0.039748314689368375 -0.160536118424881 0.039748314689368375 -0.160536118424881 -0.9631054813425326 -0.1677604591118337
73048048 -0.9670932667614036 -0.158362613733734 0.03665901113865643 -0.15157293720116335 0.03665901113865643 -0.15157293720116335 -0.9670932667614036 -0.158362613733734
76050050 -0.9701805065330956 -0.14906283207114446 0.0340046611371909 -0.14303352760430824 0.0340046611371909 -0.14303352760430824 -0.9701805065330956 -0.14906283207114446
79052052 -0.9730918598143 -0.1398895628075404 0.03174179541854753 -0.13497666348288187 0.03174179541854753 -0.13497666348288187 -0.9730918598143 -0.1398895628075404
82054054 -0.9759776038473589 -0.1318720555520458 0.02977431203405679 -0.12725141461770945 0.02977431203405679 -0.12725141461770945 -0.9759776038473589 -0.1318720555520458
85056056 -0.9781369818862576 -0.12371609574734124 0.027917389541673616 -0.11979442261864813 0.027917389541673616 -0.11979442261864813 -0.9781369818862576 -0.12371609574734124
88058058 -0.9807693772956263 -0.11564506386706261 0.026433979487452818 -0.11266847792518671 0.026433979487452818 -0.11266847792518671 -0.9807693772956263 -0.11564506386706261
91060060 -0.9829078076767994 -0.10804914158117959 0.0250137967271805 -0.10596529146191606 0.0250137967271805 -0.10596529146191606 -0.9829078076767994 -0.10804914158117959
94062062 -0.9841478054670377 -0.10069902231101485 0.023708198454321254 -0.09936655835580382 0.023708198454321254 -0.09936655835580382 -0.9841478054670377 -0.10069902231101485
97064064 -0.985998576344794 -0.09328621772056216 0.022516490902755402 -0.0930599820060716 0.022516490902755402 -0.0930599820060716 -0.985998576344794 -0.09328621772056216
100066066 -0.9872315603958816 -0.08630795730420224 0.021589635590984438 -0.08707542320002684 0.021589635590984438 -0.08707542320002684 -0.9872315603958816 -0.08630795730420224
103068068 -0.9886725829487223 -0.07966758377765715 0.020802142157527036 -0.08124516839971319 0.020802142157527036 -0.08124516839971319 -0.9886725829487223 -0.07966758377765715
106070070 -0.9898019000556743 -0.07240706216313109 0.019881549487254912 -0.07566677431937387 0.019881549487254912 -0.07566677431937387 -0.9898019000556743 -0.07240706216313109
109072072 -0.9904059106228607 -0.06579355298846228 0.01917798827811173 -0.07027193703865504 0.01917798827811173 -0.07027193703865504 -0.9904059106228607 -0.06579355298846228
112074074 -0.9915454809679198 -0.0595780477397547 0.018791172692444232 -0.0649838552671658 0.018791172692444232 -0.0649838552671658 -0.9915454809679198 -0.0595780477397547
115076076 -0.9923965347645604 -0.05379555625286164 0.018450536578610975 -0.0598981582179949 0.018450536578610975 -0.0598981582179949 -0.9923965347645604 -0.05379555625286164
118078078 -0.9922023189596038 -0.047144910048319826 0.01813917605200795 -0.055063701095402644 0.01813917605200795 -0.055063701095402644 -0.9922023189596038 -0.047144910048319826
121080080 -0.9923295277135196 -0.041609997955643026 0.017976595581038906 -0.0501872718842438 0.017976595581038906 -0.0501872718842438 -0.9923295277135196 -0.041609997955643026
124082082 -0.9936648936573668 -0.03622458412593423 0.017970338143037883 -0.04554387667332153 0.017970338143037883 -0.04554387667332153 -0.9936648936573668 -0.03622458412593423
127084084 -0.9936838949275485 -0.03058475707165664 0.017902491304792524 -0.041005989950735136 0.017902491304792524 -0.041005989950735136 -0.9936838949275485 -0.03058475707165664
130086086 -0.9936788625084169 -0.025189966988739113 0.01809600761758587 -0.03655108140391494 0.01809600761758587 -0.03655108140391494 -0.9936788625084169 -0.025189966988739113
133088088 -0.9940101321255579 -0.02040300281458678 0.018349226533895455 -0.03224637830618798 0.018349226533895455 -0.03224637830618798 -0.9940101321255579 -0.02040300281458678
136090090 -0.9939116465799792 -0.01483762933523666 0.0185729822367948 -0.028048004733384257 0.0185729822367948 -0.028048004733384257 -0.9939116465799792 -0.01483762933523666
139092092 -0.9939659578047655 -0.008986164693078063 0.0189099701519862 -0.023894788375894604 0.0189099701519862 -0.023894788375894604 -0.9939659578047655 -0.008986164693078063
142094094 -0.9940833010472224 -0.003735055536398734 0.019477185504017853 -0.020001942196429253 0.019477185504017853 -0.020001942196429253 -0.9940833010472224 -0.003735055536398734
145096096 -0.9935783595707204 0.001948905935897728 0.0199053237456079 -0.016108460367056907 0.0199053237456079 -0.016108460367056907 -0.9935783595707204 0.001948905935897728
148098098 -0.9950883518196797 -0.0025292321936294625 0.0208268575298407 -0.011998177690532746 0.0208268575298407 -0.011998177690532746 -0.9950883518196797 -0.0025292321936294625
151100100 -0.9938327016214898 0.011153484966454047 0.021055436279810182 -0.008503686502998063 0.021055436279810182 -0.008503686502998063 -0.9938327016214898 0.011153484966454047
154102102 -0.9929912553828004 0.015942117687790656 0.02182638112595508 -0.0049118795004299935 0.02182638112595508 -0.0049118795004299935 -0.9929912553828004 0.015942117687790656
157104104 -0.9924705618462207 0.021536858874832737 0.022517977382192775 -0.0013185540494969586 0.022517977382192775 -0.0013185540494969586 -0.9924705618462207 0.021536858874832737
160106106 -0.9926447229339838 0.025671244788592566 0.023262617534804807 0.002137702596473589 0.023262617534804807 0.002137702596473589 -0.9926447229339838 0.025671244788592566
163108108 -0.991857153807139 0.030828327616049245 0.02400056694759701 0.005530035214646046 0.02400056694759701 0.005530035214646046 -0.991857153807139 0.030828327616049245
166110110 -0.9909011205682396 0.03516317755134553 0.025020448349251066 0.008825757134516148 0.025020448349251066 0.008825757134516148 -0.9909011205682396 0.03516317755134553
169112112 -0.9902797497848264 0.039773932105085785 0.025795833227836216 0.012101424013750453 0.025795833227836216 0.012101424013750453 -0.9902797497848264 0.039773932105085785
172114114 -0.9900093586934127 0.04375851678034918 0.026775305032860484 0.015211330936631243 0.026775305032860484 0.015211330936631243 -0.9900093586934127 0.04375851678034918
175116116 -0.988670798443413 0.04908772393178275 0.027997119991342533 0.018317803258174885 0.027997119991342533 0.018317803258174885 -0.988670798443413 0.04908772393178275
178118118 -0.9879159220284269 0.05176388729424669 0.028843222467793972 0.021393033542966927 0.028843222467793972 0.021393033542966927 -0.9879159220284269 0.05176388729424669
181120120 -0.9877096673902762 0.05650478862221434 0.03014375758914233 0.024307858172368232 0.03014375758914233 0.024307858172368232 -0.9877096673902762 0.05650478862221434
184122122 -0.9876418911365576 0.06070290388060073 0.031138006714318392 0.02718895718424873 0.031138006714318392 0.02718895718424873 -0.9876418911365576 0.06070290388060073
187124124 -0.9865098259524222 0.06494047526452718 0.032203242923466296 0.030040042734249633 0.032203242923466296 0.030040042734249633 -0.9865098259524222 0.06494047526452718
190126126 -0.9850257012765052 0.06780827036576405 0.03350793133813662 0.03258395264217347 0.03350793133813662 0.03258395264217347 -0.9850257012765052 0.06780827036576405
193128128 -0.9845491718458985 0.07252935465575402 0.03463805423413567 0.03523774582353087 0.03463805423413567 0.03523774582353087 -0.9845491718458985 0.07252935465575402
196130130 -0.983164465784656 0.07575342049662598 0.03582798852715063 0.03784844873115346 0.03582798852715063 0.03784844873115346 -0.983164465784656 0.07575342049662598
199132132 -0.98273938302255 0.07945830595967003 0.03708251702703525 0.04040852655110467 0.03708251702703525 0.04040852655110467 -0.98273938302255 0.07945830595967003
202134134 -0.983166798726717 0.08309360734829116 0.038321174448895996 0.0428094381714029 0.038321174448895996 0.0428094381714029 -0.983166798726717 0.08309360734829116
205136136 -0.9804657549786513 0.08693261135444644 0.03942802806901125 0.04531598701985194 0.03942802806901125 0.04531598701985194 -0.9804657549786513 0.08693261135444644
208138138 -0.9803353659374446 0.09067729735490229 0.04086883186681175 0.04776762504517294 0.04086883186681175 0.04776762504517294 -0.9803353659374446 0.09067729735490229
211140140 -0.9799584258151248 0.09317073909585344 0.04218699204070265 0.049980971312322715 0.04218699204070265 0.049980971312322715 -0.9799584258151248 0.09317073909585344
214142142 -0.9782688045420723 0.09690954034258369 0.04361017092504791 0.052064844061762136 0.04361017092504791 0.052064844061762136 -0.9782688045420723 0.09690954034258369
217144144 -0.9779656951335735 0.10064934082766648 0.044768932456603495 0.05431076314886086 0.044768932456603495 0.05431076314886086 -0.9779656951335735 0.10064934082766648
220146146 -0.9767384762740006 0.1018441149554898 0.04627521087562616 0.056559804866634124 0.04627521087562616 0.056559804866634124 -0.9767384762740006 0.1018441149554898
223148148 -0.9754413224648147 0.10674886130003862 0.04737964428181944 0.058639686922808874 0.04737964428181944 0.058639686922808874 -0.9754413224648147 0.10674886130003862
226150150 -0.9754523767977007 0.10929615187062476 0.0489263571310185 0.06079022528381942 0.0489263571310185 0.06079022528381942 -0.9754523767977007 0.10929615187062476
229152152 -0.97315525855958 0.1123530760660867 0.05039677184726578 0.06268523707969507 0.05039677184726578 0.06268523707969507 -0.97315525855958 0.1123530760660867
232154154 -0.9719352869982597 0.11489156866431059 0.05166399584972395 0.06472223621003298 0.05166399584972395 0.06472223621003298 -0.9719352869982597 0.11489156866431059
235156156 -0.9708402225277578 0.11817480090574882 0.05315463023558948 0.06659770533677438 0.05315463023558948 0.06659770533677438 -0.9708402225277578 0.11817480090574882
238158158 -0.9702126129851409 0.12140611420800058 0.0544531900713575 0.06858596104844167 0.0544531900713575 0.06858596104844167 -0.9702126129851409 0.12140611420800058
241160160 -0.9692747825414137 0.12355766892331478 0.05579425308558081 0.07047499446570177 0.05579425308558081 0.07047499446570177 -0.9692747825414137 0.12355766892331478
244162162 -0.9689033170747486 0.12630957483270797 0.057250687898455645 0.0722473981431134 0.057250687898455645 0.0722473981431134 -0.9689033170747486 0.12630957483270797
247164164 -0.9680035439402914 0.12729253420955572 0.058625867714666144 0.07425967104690559 0.058625867714666144 0.07425967104690559 -0.9680035439402914 0.12729253420955572
250166166 -0.9659299984561311 0.13103175022657457 0.06013622973708183 0.07577973428589198 0.06013622973708183 0.07577973428589198 -0.9659299984561311 0.13103175022657457
253168168 -0.96568101126765 0.1333631550624898 0.06143034387932813 0.07768266755142782 0.06143034387932813 0.07768266755142782 -0.96568101126765 0.1333631550624898
256170170 -0.964286075142773 0.1365800037784502 0.06323361932573007 0.07919130987647484 0.06323361932573007 0.07919130987647484 -0.964286075142773 0.1365800037784502
259172172 -0.9636647702647032 0.1385445112709491 0.06438116198212238 0.08110783598754423 0.06438116198212238 0.08110783598754423 -0.9636647702647032 0.1385445112709491
262174174 -0.962570592924711 0.14000701072139116 0.06576668117557298 0.08267075519258624 0.06576668117557298 0.08267075519258624 -0.962570592924711 0.14000701072139116
265176176 -0.961004026775769 0.14319085051702085 0.06734354991852355 0.08447302809184606 0.06734354991852355 0.08447302809184606 -0.961004026775769 0.14319085051702085
268178178 -0.9601459278435854 0.14494263270630492 0.06881350826111009 0.08610449995944848 0.06881350826111009 0.08610449995944848 -0.9601459278435854 0.14494263270630492
271180180 -0.9592209881795327 0.1469982138467084 0.07058525430453765 0.08764371380368265 0.07058525430453765 0.08764371380368265 -0.9592209881795327 0.1469982138467084
274182182 -0.958142907393795 0.14941623789541153 0.07192250016352644 0.08932352193705513 0.07192250016352644 0.08932352193705513 -0.958142907393795 0.14941623789541153
277184184 -0.9559662141953604 0.1518941105213045 0.07343797983747033 0.0908033896279699 0.07343797983747033 0.0908033896279699 -0.9559662141953604 0.1518941105213045
280186186 -0.9559504950619123 0.1533974492943177 0.0750092577062689 0.09236506052336291 0.0750092577062689 0.09236506052336291 -0.9559504950619123 0.1533974492943177
283188188 -0.9535416684350614 0.15636026047556836 0.07646169535032851 0.09400162172346499 0.07646169535032851 0.09400162172346499 -0.9535416684350614 0.15636026047556836
286190190 -0.954614662093613 0.1573483945910068 0.07784096354454226 0.09552691173730511 0.07784096354454226 0.09552691173730511 -0.954614662093613 0.1573483945910068
289192192 -0.9531694288841525 0.15866053438397287 0.07953011075809707 0.09702041053786815 0.07953011075809707 0.09702041053786815 -0.9531694288841525 0.15866053438397287
292194194 -0.9512189268600527 0.16184899671143627 0.0811035128579539 0.09865559516685875 0.0811035128579539 0.09865559516685875 -0.9512189268600527 0.16184899671143627
295196196 -0.9490751132132523 0.1633459157234443 0.08258306803077721 0.09979194976428025 0.08258306803077721 0.09979194976428025 -0.9490751132132523 0.1633459157234443
298198198 -0.9482948628799928 0.16685275187217957 0.08411268374770488 0.10104450732327377 0.08411268374770488 0.10104450732327377 -0.9482948628799928 0.16685275187217957
301200200 -0.9476019147981496 0.16650257834662738 0.08597459993938944 0.10245662237157004 0.08597459993938944 0.10245662237157004 -0.9476019147981496 0.16650257834662738
304202202 -0.9463106675870391 0.16890851091493975 0.08761451545361305 0.10384624905212021 0.08761451545361305 0.10384624905212021 -0.9463106675870391 0.16890851091493975
307204204 -0.9456881690737554 0.16983774973913834 0.08942482255068082 0.1052357180694118 0.08942482255068082 0.1052357180694118 -0.9456881690737554 0.16983774973913834
310206206 -0.9433169696437514 0.1723136909444037 0.09108858056719095 0.10647005004339673 0.09108858056719095 0.10647005004339673 -0.9433169696437514 0.1723136909444037
313208208 -0.942137266774383 0.17409907913428946 0.09281685771367149 0.10722692760987362 0.09281685771367149 0.10722692760987362 -0.942137266774383 0.17409907913428946
316210210 -0.9420830702907304 0.17348389445870985 0.09423545575078908 0.10909865396091967 0.09423545575078908 0.10909865396091967 -0.9420830702907304 0.17348389445870985
319212212 -0.9417396788842347 0.1765260001705073 0.09645759735465774 0.11005081072658618 0.09645759735465774 0.11005081072658618 -0.9417396788842347 0.1765260001705073
322214214 -0.9389262983515597 0.17956519027118922 0.09817190617215549 0.11164797216652808 0.09817190617215549 0.11164797216652808 -0.9389262983515597 0.17956519027118922
325216216 -0.938231320792073 0.18139637265108235 0.10015841822837396 0.11241570990201355 0.10015841822837396 0.11241570990201355 -0.938231320792073 0.18139637265108235
328218218 -0.9370376236344115 0.18173618885842838 0.10146433796263375 0.11373269797895093 0.10146433796263375 0.11373269797895093 -0.9370376236344115 0.18173618885842838
331220220 -0.9350104327605958 0.18287031537872497 0.10352648311869544 0.11487234058573331 0.10352648311869544 0.11487234058573331 -0.9350104327605958 0.18287031537872497
334222222 -0.9343632090675841 0.1841940173355838 0.10534184180079807 0.11585980402432483 0.10534184180079807 0.11585980402432483 -0.9343632090675841 0.1841940173355838
337224224 -0.9322401574018399 0.18572773781180457 0.1072636077066075 0.11678105907660558 0.1072636077066075 0.11678105907660558 -0.9322401574018399 0.18572773781180457
340226226 -0.9324788753916377 0.1892622094679791 0.1090844319931213 0.1177865090446753 0.1090844319931213 0.1177865090446753 -0.9324788753916377 0.1892622094679791
343228228 -0.9302029583613308 0.19012164577137197 0.11093768681009578 0.11871160699908243 0.11093768681009578 0.11871160699908243 -0.9302029583613308 0.19012164577137197
346230230 -0.9282671130574038 0.19028347179270483 0.11299086012668617 0.11969206994372464 0.11299086012668617 0.11969206994372464 -0.9282671130574038 0.19028347179270483
