! Touchstone file generated by RF Tool Suite
# Hz S RI R 50
1.0000000000e+05 -1.0191376351e+00 -2.3022152883e-02
1.1009000000e+06 -9.9738294923e-01 -1.6541546443e-03
2.1018010000e+06 -1.0002407324e+00 1.7658474893e-03
3.1027020000e+06 -1.0003845051e+00 3.1284436325e-03
4.1036030000e+06 -1.0011040732e+00 5.0309020622e-03
5.1045040000e+06 -1.0006563080e+00 6.6038324527e-03
6.1054050000e+06 -1.0006472820e+00 8.1399859206e-03
7.1063060000e+06 -1.0005629827e+00 9.6407539182e-03
8.1072070000e+06 -1.0004636648e+00 1.0828378022e-02
9.1081080000e+06 -9.9985386088e-01 1.2374144495e-02
1.0109009000e+07 -9.9935947341e-01 1.2928588091e-02
1.1109909000e+07 -9.9950091139e-01 1.4639676407e-02
1.2110810000e+07 -9.9906555589e-01 1.5209777357e-02
1.3111711000e+07 -9.9921582839e-01 1.6501965464e-02
1.4112612000e+07 -9.9846904752e-01 1.7872398040e-02
1.5113513000e+07 -9.9849702558e-01 1.9150874946e-02
1.6114414000e+07 -9.9828953076e-01 2.0112447471e-02
1.7115315000e+07 -9.9808682722e-01 2.1195842024e-02
1.8116216000e+07 -9.9803274115e-01 2.1752616117e-02
1.9117117000e+07 -9.9736083379e-01 2.3172442204e-02
2.0118018000e+07 -9.9798810412e-01 2.4232524322e-02
2.1118918000e+07 -9.9702999389e-01 2.5444492709e-02
2.2119819000e+07 -9.9744335759e-01 2.6219311134e-02
2.3120720000e+07 -9.9709298561e-01 2.7058323467e-02
2.4121621000e+07 -9.9725329321e-01 2.8247445405e-02
2.5122522000e+07 -9.9660453077e-01 2.9439651605e-02
2.6123423000e+07 -9.9663202590e-01 2.9833817780e-02
2.7124324000e+07 -9.9637385466e-01 3.1234861685e-02
2.8125225000e+07 -9.9667589104e-01 3.2351598831e-02
2.9126126000e+07 -9.9644203645e-01 3.3270797300e-02
3.0127027000e+07 -9.9601555956e-01 3.4090870482e-02
3.1127927000e+07 -9.9639777337e-01 3.5345158214e-02
3.2128828000e+07 -9.9635815360e-01 3.5835162903e-02
3.3129729000e+07 -9.9605751830e-01 3.7122853142e-02
3.4130630000e+07 -9.9580566210e-01 3.8234623830e-02
3.5131531000e+07 -9.9545436773e-01 3.8793082772e-02
3.6132432000e+07 -9.9563144481e-01 3.9593855671e-02
3.7133333000e+07 -9.9586468206e-01 4.0627133640e-02
3.8134234000e+07 -9.9533194899e-01 4.1605680662e-02
3.9135135000e+07 -9.9506931906e-01 4.2669859662e-02
4.0136036000e+07 -9.9532287960e-01 4.3745346765e-02
4.1136936000e+07 -9.9507697736e-01 4.4686815043e-02
4.2137837000e+07 -9.9529005443e-01 4.5467415368e-02
4.3138738000e+07 -9.9478910282e-01 4.6313939025e-02
4.4139639000e+07 -9.9498108699e-01 4.7412024033e-02
4.5140540000e+07 -9.9473066106e-01 4.8231884015e-02
4.6141441000e+07 -9.9453418991e-01 4.8916375753e-02
4.7142342000e+07 -9.9416933292e-01 4.9880265392e-02
4.8143243000e+07 -9.9395507023e-01 5.0458354567e-02
4.9144144000e+07 -9.9384974540e-01 5.1251745470e-02
5.0145045000e+07 -9.9399316990e-01 5.2741385353e-02
5.1145945000e+07 -9.9403098026e-01 5.3270831939e-02
5.2146846000e+07 -9.9378096650e-01 5.4251791785e-02
5.3147747000e+07 -9.9360841202e-01 5.4599525929e-02
5.4148648000e+07 -9.9365685436e-01 5.5532960287e-02
5.5149549000e+07 -9.9329220655e-01 5.6652493399e-02
5.6150450000e+07 -9.9332464289e-01 5.7581443410e-02
5.7151351000e+07 -9.9307717594e-01 5.8250284152e-02
5.8152252000e+07 -9.9274463515e-01 5.8812007158e-02
5.9153153000e+07 -9.9294647684e-01 6.0033112935e-02
6.0154054000e+07 -9.9279403956e-01 6.0324542721e-02
6.1154954000e+07 -9.9259922756e-01 6.1289843854e-02
6.2155855000e+07 -9.9262545716e-01 6.1973778311e-02
6.3156756000e+07 -9.9247396591e-01 6.2789692347e-02
6.4157657000e+07 -9.9240886826e-01 6.3211510229e-02
6.5158558000e+07 -9.9242930436e-01 6.4102806945e-02
6.6159459000e+07 -9.9249102303e-01 6.5079230191e-02
6.7160360000e+07 -9.9207204711e-01 6.5784315111e-02
6.8161261000e+07 -9.9202292907e-01 6.6432096591e-02
6.9162162000e+07 -9.9106850310e-01 6.7397341875e-02
7.0163063000e+07 -9.9175995839e-01 6.8161359414e-02
7.1163963000e+07 -9.9144328725e-01 6.8848846472e-02
7.2164864000e+07 -9.9180139902e-01 6.9683134551e-02
7.3165765000e+07 -9.9125399477e-01 6.9645853233e-02
7.4166666000e+07 -9.9140925146e-01 7.0678838851e-02
7.5167567000e+07 -9.9120454816e-01 7.0989263527e-02
7.6168468000e+07 -9.9145157922e-01 7.2103022174e-02
7.7169369000e+07 -9.9104956596e-01 7.2272175014e-02
7.8170270000e+07 -9.9137345783e-01 7.3166646858e-02
7.9171171000e+07 -9.9092242003e-01 7.4133397652e-02
8.0172072000e+07 -9.9117869537e-01 7.4310104815e-02
8.1172972000e+07 -9.9057961011e-01 7.4746733136e-02
8.2173873000e+07 -9.9069695015e-01 7.5258669312e-02
8.3174774000e+07 -9.9085295528e-01 7.6302225477e-02
8.4175675000e+07 -9.9035580326e-01 7.6412040976e-02
8.5176576000e+07 -9.9095432649e-01 7.7064669636e-02
8.6177477000e+07 -9.9044364419e-01 7.7998104796e-02
8.7178378000e+07 -9.9061135506e-01 7.7653135651e-02
8.8179279000e+07 -9.9039151534e-01 7.8724691695e-02
8.9180180000e+07 -9.9030926343e-01 7.8876077036e-02
9.0181081000e+07 -9.9026458100e-01 7.9949357641e-02
9.1181981000e+07 -9.8985353840e-01 8.0421861521e-02
9.2182882000e+07 -9.8995742096e-01 8.0653286784e-02
9.3183783000e+07 -9.8989975223e-01 8.1314638358e-02
9.4184684000e+07 -9.8940855731e-01 8.1956836846e-02
9.5185585000e+07 -9.8960465032e-01 8.2414668204e-02
9.6186486000e+07 -9.8970797816e-01 8.2878544713e-02
9.7187387000e+07 -9.8951852469e-01 8.3109866298e-02
9.8188288000e+07 -9.8964856319e-01 8.4052311612e-02
9.9189189000e+07 -9.8950390082e-01 8.4005897672e-02
1.0019009000e+08 -9.8944861230e-01 8.4195624543e-02
1.0119099000e+08 -9.8913102088e-01 8.4319356629e-02
1.0219189100e+08 -9.8942567429e-01 8.5907023982e-02
1.0319279200e+08 -9.8933302236e-01 8.5412130213e-02
1.0419369300e+08 -9.8906962790e-01 8.6770981837e-02
1.0519459400e+08 -9.8914418885e-01 8.7023839295e-02
1.0619549500e+08 -9.8919135634e-01 8.7423388605e-02
1.0719639600e+08 -9.8908813405e-01 8.8271940318e-02
1.0819729700e+08 -9.8890208835e-01 8.8638267279e-02
1.0919819800e+08 -9.8872840717e-01 9.0497489707e-02
1.1019909900e+08 -9.8863002452e-01 8.9608065981e-02
1.1120000000e+08 -9.8858504638e-01 8.9971835508e-02
1.1220090000e+08 -9.8904852594e-01 8.9553517220e-02
1.1320180100e+08 -9.8902008939e-01 9.0515575352e-02
1.1420270200e+08 -9.8875605335e-01 9.1169783746e-02
1.1520360300e+08 -9.8890501295e-01 9.0975930587e-02
1.1620450400e+08 -9.8867774660e-01 9.1717092796e-02
1.1720540500e+08 -9.8899713985e-01 9.2429438624e-02
1.1820630600e+08 -9.8869772177e-01 9.2262746054e-02
1.1920720700e+08 -9.8901679847e-01 9.2460294039e-02
1.2020810800e+08 -9.8874612459e-01 9.3090817891e-02
1.2120900900e+08 -9.8864542269e-01 9.3084208259e-02
1.2220990900e+08 -9.8880078277e-01 9.3813537136e-02
1.2321081000e+08 -9.8862196669e-01 9.4236350859e-02
1.2421171100e+08 -9.8839214492e-01 9.4348202607e-02
1.2521261200e+08 -9.8880155524e-01 9.4295433647e-02
1.2621351300e+08 -9.8872980788e-01 9.4712658604e-02
1.2721441400e+08 -9.8927248762e-01 9.5077333621e-02
1.2821531500e+08 -9.8852647590e-01 9.5428030705e-02
1.2921621600e+08 -9.8881555783e-01 9.5670767202e-02
1.3021711700e+08 -9.8869245784e-01 9.5185984107e-02
1.3121801800e+08 -9.8903397755e-01 9.5766965492e-02
1.3221891800e+08 -9.8867743226e-01 9.6143971061e-02
1.3321981900e+08 -9.8908754201e-01 9.6768424814e-02
1.3422072000e+08 -9.8859824477e-01 9.6930734244e-02
1.3522162100e+08 -9.8874041159e-01 9.6398135709e-02
1.3622252200e+08 -9.8899574600e-01 9.6712041536e-02
1.3722342300e+08 -9.8853196262e-01 9.7666710862e-02
1.3822432400e+08 -9.8884511164e-01 9.7517959063e-02
1.3922522500e+08 -9.8870403707e-01 9.7266549266e-02
1.4022612600e+08 -9.8737418717e-01 9.7634108683e-02
1.4122702700e+08 -9.8824418618e-01 9.7696902515e-02
1.4222792700e+08 -9.8841558800e-01 9.8466184657e-02
1.4322882800e+08 -9.8876114666e-01 9.8704539832e-02
1.4422972900e+08 -9.8846634618e-01 9.8420551204e-02
1.4523063000e+08 -9.8889785176e-01 9.9256240604e-02
1.4623153100e+08 -9.8825419748e-01 9.9489514163e-02
1.4723243200e+08 -9.8781600691e-01 9.9861209769e-02
1.4823333300e+08 -9.8840537666e-01 9.9938119711e-02
1.4923423400e+08 -9.8827381349e-01 9.9704945005e-02
1.5023513500e+08 -9.8852234865e-01 1.0003488162e-01
1.5123603600e+08 -9.8807543910e-01 1.0029722049e-01
1.5223693600e+08 -9.8842225332e-01 1.0024170542e-01
1.5323783700e+08 -9.8855527039e-01 1.0035700234e-01
1.5423873800e+08 -9.8839443622e-01 1.0118701693e-01
1.5523963900e+08 -9.8812560080e-01 1.0046313911e-01
1.5624054000e+08 -9.8857641249e-01 1.0116600930e-01
1.5724144100e+08 -9.8804491941e-01 1.0124781321e-01
1.5824234200e+08 -9.8826028292e-01 1.0216769218e-01
1.5924324300e+08 -9.8840736103e-01 1.0222377298e-01
1.6024414400e+08 -9.8784242818e-01 1.0226327567e-01
1.6124504500e+08 -9.8824962008e-01 1.0253445688e-01
1.6224594500e+08 -9.8828390515e-01 1.0346962787e-01
1.6324684600e+08 -9.8775718959e-01 1.0337425374e-01
1.6424774700e+08 -9.8847060879e-01 1.0417670134e-01
1.6524864800e+08 -9.8748796766e-01 1.0297079388e-01
1.6624954900e+08 -9.8861378692e-01 1.0379716052e-01
1.6725045000e+08 -9.8862760058e-01 1.0336273315e-01
1.6825135100e+08 -9.8771053814e-01 1.0432573906e-01
1.6925225200e+08 -9.8869073843e-01 1.0471463786e-01
1.7025315300e+08 -9.8854525574e-01 1.0444619798e-01
1.7125405400e+08 -9.8785652460e-01 1.0505500022e-01
1.7225495400e+08 -9.8864605043e-01 1.0576518862e-01
1.7325585500e+08 -9.8817470727e-01 1.0522229716e-01
1.7425675600e+08 -9.8751009091e-01 1.0664456813e-01
1.7525765700e+08 -9.8784295067e-01 1.0622894784e-01
1.7625855800e+08 -9.8779356725e-01 1.0651460884e-01
1.7725945900e+08 -9.8772373509e-01 1.0685666850e-01
1.7826036000e+08 -9.8738531486e-01 1.0782482117e-01
1.7926126100e+08 -9.8760419928e-01 1.0807742321e-01
1.8026216200e+08 -9.8753241628e-01 1.0857686954e-01
1.8126306300e+08 -9.8697019608e-01 1.0775152932e-01
1.8226396300e+08 -9.8773799308e-01 1.0914450740e-01
1.8326486400e+08 -9.8706189110e-01 1.0946385065e-01
1.8426576500e+08 -9.8728034009e-01 1.0900340525e-01
1.8526666600e+08 -9.8713989766e-01 1.0949036177e-01
1.8626756700e+08 -9.8701229164e-01 1.0999054756e-01
1.8726846800e+08 -9.8725208634e-01 1.0934731422e-01
1.8826936900e+08 -9.8693923270e-01 1.0949527323e-01
1.8927027000e+08 -9.8671891825e-01 1.1082101333e-01
1.9027117100e+08 -9.8646716829e-01 1.1049119441e-01
1.9127207200e+08 -9.8635252222e-01 1.1161546343e-01
1.9227297200e+08 -9.8665472165e-01 1.1229214672e-01
1.9327387300e+08 -9.8629567912e-01 1.1290718449e-01
1.9427477400e+08 -9.8700215299e-01 1.1219724835e-01
1.9527567500e+08 -9.8634840804e-01 1.1301682126e-01
1.9627657600e+08 -9.8557190995e-01 1.1340936062e-01
1.9727747700e+08 -9.8588860873e-01 1.1405682055e-01
1.9827837800e+08 -9.8682272512e-01 1.1410200234e-01
1.9927927900e+08 -9.8662373882e-01 1.1455071297e-01
2.0028018000e+08 -9.8564014901e-01 1.1444303346e-01
2.0128108100e+08 -9.8557331467e-01 1.1396084859e-01
2.0228198100e+08 -9.8618016670e-01 1.1573739903e-01
2.0328288200e+08 -9.8517961962e-01 1.1604015040e-01
2.0428378300e+08 -9.8545567566e-01 1.1647112002e-01
2.0528468400e+08 -9.8420300214e-01 1.1706273644e-01
2.0628558500e+08 -9.8457018713e-01 1.1743073031e-01
2.0728648600e+08 -9.8507618566e-01 1.1791964766e-01
2.0828738700e+08 -9.8494882786e-01 1.1808445900e-01
2.0928828800e+08 -9.8429756758e-01 1.1855567325e-01
2.1028918900e+08 -9.8467416198e-01 1.1956357113e-01
2.1129009000e+08 -9.8473203285e-01 1.1965394956e-01
2.1229099000e+08 -9.8441991158e-01 1.2052714934e-01
2.1329189100e+08 -9.8509608494e-01 1.2105400545e-01
2.1429279200e+08 -9.8294083495e-01 1.2259464313e-01
2.1529369300e+08 -9.8299589424e-01 1.2164405307e-01
2.1629459400e+08 -9.8379018420e-01 1.2185169681e-01
2.1729549500e+08 -9.8280516228e-01 1.2297033185e-01
2.1829639600e+08 -9.8320340914e-01 1.2384000587e-01
2.1929729700e+08 -9.8354639011e-01 1.2365392374e-01
2.2029819800e+08 -9.8325236144e-01 1.2424529670e-01
2.2129909900e+08 -9.8345354445e-01 1.2554459441e-01
2.2230000000e+08 -9.8283121995e-01 1.2488759847e-01
2.2330090000e+08 -9.8190897730e-01 1.2638586155e-01
2.2430180100e+08 -9.8166651599e-01 1.2670979565e-01
2.2530270200e+08 -9.8187743743e-01 1.2801127649e-01
2.2630360300e+08 -9.8116195139e-01 1.2857712566e-01
2.2730450400e+08 -9.8087420368e-01 1.2889771014e-01
2.2830540500e+08 -9.8062171755e-01 1.2773230042e-01
2.2930630600e+08 -9.8044261934e-01 1.3000876425e-01
2.3030720700e+08 -9.7908289554e-01 1.3075870587e-01
2.3130810800e+08 -9.7960380018e-01 1.3238844818e-01
2.3230900900e+08 -9.7990212367e-01 1.3298931931e-01
2.3330990900e+08 -9.7888944492e-01 1.3267245094e-01
2.3431081000e+08 -9.7965296500e-01 1.3295011949e-01
2.3531171100e+08 -9.7899827416e-01 1.3479956290e-01
2.3631261200e+08 -9.7762476979e-01 1.3496880868e-01
2.3731351300e+08 -9.7787557627e-01 1.3668198768e-01
2.3831441400e+08 -9.7794746142e-01 1.3623942971e-01
2.3931531500e+08 -9.7722312572e-01 1.3659135083e-01
2.4031621600e+08 -9.7805263007e-01 1.3671214065e-01
2.4131711700e+08 -9.7785309876e-01 1.3791177489e-01
2.4231801800e+08 -9.7746370337e-01 1.3855089849e-01
2.4331891800e+08 -9.7657984649e-01 1.4011687309e-01
2.4431981900e+08 -9.7516684864e-01 1.4025499038e-01
2.4532072000e+08 -9.7637000889e-01 1.4033699887e-01
2.4632162100e+08 -9.7620581654e-01 1.4080878134e-01
2.4732252200e+08 -9.7493643851e-01 1.4278318695e-01
2.4832342300e+08 -9.7427292766e-01 1.4227035124e-01
2.4932432400e+08 -9.7388252479e-01 1.4459040040e-01
2.5032522500e+08 -9.7329444889e-01 1.4459626927e-01
2.5132612600e+08 -9.7356015462e-01 1.4668193781e-01
2.5232702700e+08 -9.7343174299e-01 1.4663061181e-01
2.5332792700e+08 -9.7273779712e-01 1.4779261293e-01
2.5432882800e+08 -9.7269797416e-01 1.4665675098e-01
2.5532972900e+08 -9.7214366369e-01 1.4851275284e-01
2.5633063000e+08 -9.7182383000e-01 1.4951408924e-01
2.5733153100e+08 -9.7282702481e-01 1.4898253755e-01
2.5833243200e+08 -9.7122712880e-01 1.5064830059e-01
2.5933333300e+08 -9.7118145335e-01 1.5137792568e-01
2.6033423400e+08 -9.6939238394e-01 1.5159341712e-01
2.6133513500e+08 -9.6869558728e-01 1.5364436856e-01
2.6233603600e+08 -9.6898802866e-01 1.5462025911e-01
2.6333693600e+08 -9.6918856057e-01 1.5475888378e-01
2.6433783700e+08 -9.6794536088e-01 1.5593587250e-01
2.6533873800e+08 -9.6728823404e-01 1.5744347646e-01
2.6633963900e+08 -9.6747480822e-01 1.5718666083e-01
2.6734054000e+08 -9.6637715213e-01 1.5938757288e-01
2.6834144100e+08 -9.6602664619e-01 1.6098345027e-01
2.6934234200e+08 -9.6685588109e-01 1.6023228218e-01
2.7034324300e+08 -9.6559787749e-01 1.6132417200e-01
2.7134414400e+08 -9.6483091299e-01 1.6188055471e-01
2.7234504500e+08 -9.6419741290e-01 1.6296549542e-01
2.7334594500e+08 -9.6399624210e-01 1.6299209878e-01
2.7434684600e+08 -9.6411299063e-01 1.6464880519e-01
2.7534774700e+08 -9.6349725231e-01 1.6446234520e-01
2.7634864800e+08 -9.6281167368e-01 1.6646393590e-01
2.7734954900e+08 -9.6104018595e-01 1.6717258307e-01
2.7835045000e+08 -9.6175287925e-01 1.6935814884e-01
2.7935135100e+08 -9.6111054415e-01 1.6976475006e-01
2.8035225200e+08 -9.6039063905e-01 1.6921299010e-01
2.8135315300e+08 -9.6038920787e-01 1.7022871116e-01
2.8235405400e+08 -9.5876018086e-01 1.7110535558e-01
2.8335495400e+08 -9.5989385186e-01 1.7193220204e-01
2.8435585500e+08 -9.5781559705e-01 1.7330073190e-01
2.8535675600e+08 -9.5653408744e-01 1.7591219889e-01
2.8635765700e+08 -9.5749631506e-01 1.7545127502e-01
2.8735855800e+08 -9.5590369402e-01 1.7849260327e-01
2.8835945900e+08 -9.5589265447e-01 1.7668224497e-01
2.8936036000e+08 -9.5568363333e-01 1.7752908894e-01
2.9036126100e+08 -9.5468052127e-01 1.7833810435e-01
2.9136216200e+08 -9.5434400957e-01 1.8103782306e-01
2.9236306300e+08 -9.5439358292e-01 1.8033025467e-01
2.9336396300e+08 -9.5222520893e-01 1.8260980836e-01
2.9436486400e+08 -9.5241467451e-01 1.8171123354e-01
2.9536576500e+08 -9.5179174152e-01 1.8222639976e-01
2.9636666600e+08 -9.5140978172e-01 1.8468179257e-01
2.9736756700e+08 -9.7747816055e-01 1.3202743036e-01
2.9836846800e+08 -9.5016435778e-01 1.8769199702e-01
2.9936936900e+08 -9.4886665588e-01 1.8690714838e-01
3.0037027000e+08 -9.4837075145e-01 1.8843568019e-01
3.0137117100e+08 -9.4864765307e-01 1.8904368043e-01
3.0237207200e+08 -9.4734038881e-01 1.8874270696e-01
3.0337297200e+08 -9.4879075013e-01 1.8907058766e-01
3.0437387300e+08 -9.4619455705e-01 1.9300102456e-01
3.0537477400e+08 -9.4376984335e-01 1.9215098605e-01
3.0637567500e+08 -9.4640212912e-01 1.9375469351e-01
3.0737657600e+08 -9.4482458677e-01 1.9545327858e-01
3.0837747700e+08 -9.4436328468e-01 1.9544083851e-01
3.0937837800e+08 -9.4514463401e-01 1.9465381898e-01
3.1037927900e+08 -9.4213950002e-01 1.9879467611e-01
3.1138018000e+08 -9.4143005485e-01 1.9726663465e-01
3.1238108100e+08 -9.4187826970e-01 1.9900710135e-01
3.1338198100e+08 -9.4060669359e-01 2.0076632771e-01
3.1438288200e+08 -9.4039666506e-01 1.9986483859e-01
3.1538378300e+08 -9.3926926164e-01 2.0015033499e-01
3.1638468400e+08 -9.3807089038e-01 2.0164842931e-01
3.1738558500e+08 -9.3747287853e-01 2.0231105408e-01
3.1838648600e+08 -9.3830352984e-01 2.0397066044e-01
3.1938738700e+08 -9.3673786782e-01 2.0514105836e-01
3.2038828800e+08 -9.3484541937e-01 2.0526220706e-01
3.2138918900e+08 -9.3517166930e-01 2.0596627276e-01
3.2239009000e+08 -9.3461678923e-01 2.0723223118e-01
3.2339099000e+08 -9.3343652416e-01 2.0795537925e-01
3.2439189100e+08 -9.3379785652e-01 2.0755596222e-01
3.2539279200e+08 -9.3290143981e-01 2.0984762360e-01
3.2639369300e+08 -9.3304956318e-01 2.1070696743e-01
3.2739459400e+08 -9.3050181209e-01 2.1035902285e-01
3.2839549500e+08 -9.3250678830e-01 2.1260728030e-01
3.2939639600e+08 -9.3015949505e-01 2.1356670540e-01
3.3039729700e+08 -9.3002894891e-01 2.1204827075e-01
3.3139819800e+08 -9.2756528814e-01 2.1572747699e-01
3.3239909900e+08 -9.2773172500e-01 2.1624357533e-01
3.3340000000e+08 -9.2625518419e-01 2.1575965368e-01
3.3440090000e+08 -9.2735023643e-01 2.1558315698e-01
3.3540180100e+08 -9.2623244975e-01 2.1754582123e-01
3.3640270200e+08 -9.2536750876e-01 2.1935325367e-01
3.3740360300e+08 -9.2414874406e-01 2.1903238856e-01
3.3840450400e+08 -9.2445009612e-01 2.2015524576e-01
3.3940540500e+08 -9.2381984135e-01 2.2149174547e-01
3.4040630600e+08 -9.2092726003e-01 2.2245453511e-01
3.4140720700e+08 -9.2309615697e-01 2.2187150476e-01
3.4240810800e+08 -9.2167157696e-01 2.2306885349e-01
3.4340900900e+08 -9.2135803127e-01 2.2340071997e-01
3.4440990900e+08 -9.2075240527e-01 2.2409130956e-01
3.4541081000e+08 -9.2153421503e-01 2.2359123711e-01
3.4641171100e+08 -9.2059220993e-01 2.2407381933e-01
3.4741261200e+08 -9.1887734183e-01 2.2591437024e-01
3.4841351300e+08 -9.1843210898e-01 2.2752116169e-01
3.4941441400e+08 -9.1618527669e-01 2.2679671764e-01
3.5041531500e+08 -9.1691315000e-01 2.2841599847e-01
3.5141621600e+08 -9.1557924952e-01 2.2954632106e-01
3.5241711700e+08 -9.1556725720e-01 2.2957466383e-01
3.5341801800e+08 -9.1448834463e-01 2.2990070179e-01
3.5441891800e+08 -9.1496195780e-01 2.2962976683e-01
3.5541981900e+08 -9.1307479729e-01 2.3215386888e-01
3.5642072000e+08 -9.1293308901e-01 2.3110888319e-01
3.5742162100e+08 -9.1097250125e-01 2.3258218309e-01
3.5842252200e+08 -9.1092306967e-01 2.3426250133e-01
3.5942342300e+08 -9.1112612843e-01 2.3364650401e-01
3.6042432400e+08 -9.0955023814e-01 2.3418952019e-01
3.6142522500e+08 -9.0871129190e-01 2.3445991223e-01
3.6242612600e+08 -9.0930251101e-01 2.3458269168e-01
3.6342702700e+08 -9.0823977805e-01 2.3465797373e-01
3.6442792700e+08 -9.0870593333e-01 2.3606011338e-01
3.6542882800e+08 -9.0718450602e-01 2.3713229102e-01
3.6642972900e+08 -9.0779697833e-01 2.3630713893e-01
3.6743063000e+08 -9.0814177410e-01 2.3815394138e-01
3.6843153100e+08 -9.0531283921e-01 2.3882915042e-01
3.6943243200e+08 -9.0490860046e-01 2.3890458730e-01
3.7043333300e+08 -9.0516420243e-01 2.3825446929e-01
3.7143423400e+08 -9.0346013253e-01 2.4009250426e-01
3.7243513500e+08 -9.0275140378e-01 2.3840554311e-01
3.7343603600e+08 -9.0304691889e-01 2.4164992447e-01
3.7443693600e+08 -9.0077364236e-01 2.4208935811e-01
3.7543783700e+08 -9.0109334575e-01 2.4197690372e-01
3.7643873800e+08 -9.0048941110e-01 2.4169244258e-01
3.7743963900e+08 -9.0091023148e-01 2.4296808499e-01
3.7844054000e+08 -9.0032845865e-01 2.4389839692e-01
3.7944144100e+08 -9.0040000057e-01 2.4346309812e-01
3.8044234200e+08 -9.0011549646e-01 2.4431202140e-01
3.8144324300e+08 -8.9921321587e-01 2.4362023444e-01
3.8244414400e+08 -8.9900534021e-01 2.4486916215e-01
