! Touchstone file generated by RF Tool Suite
# Hz S RI R 50
1000000 0.0006492538852994213 -0.0004345168650990134 0.999373284050347 -2.424093848526917e-05 0.999373284050347 -2.424093848526917e-05 0.0006492538852994213 -0.0004345168650990134
4002002 0.00048349147575091285 -0.0008713504565553659 1.0002906023535714 -0.002415198736600558 1.0002906023535714 -0.002415198736600558 0.00048349147575091285 -0.0008713504565553659
7004004 0.0009754607065540231 -0.0021041173411525155 1.0004497006511825 -0.005553682895406315 1.0004497006511825 -0.005553682895406315 0.0009754607065540231 -0.0021041173411525155
10006006 0.0011829824887854654 -0.0035565729734566023 1.0004795135408178 -0.008073203896186258 1.0004795135408178 -0.008073203896186258 0.0011829824887854654 -0.0035565729734566023
13008008 0.0017189478378528847 -0.0051619652106491215 1.0005026585117014 -0.010981382843165872 1.0005026585117014 -0.010981382843165872 0.0017189478378528847 -0.0051619652106491215
16010010 0.0020075402281887838 -0.007153368182608904 1.0004173627868393 -0.013800799005952727 1.0004173627868393 -0.013800799005952727 0.0020075402281887838 -0.007153368182608904
19012012 0.0021281374038081024 -0.0086469884103097 1.0004278854026962 -0.016874939846849266 1.0004278854026962 -0.016874939846849266 0.0021281374038081024 -0.0086469884103097
22014014 0.0020445337612730752 -0.0101413040112161 1.000420898768289 -0.01935895197242722 1.000420898768289 -0.01935895197242722 0.0020445337612730752 -0.0101413040112161
25016016 0.0021754224399651656 -0.011747855625773023 1.0003569726174637 -0.02207220293872129 1.0003569726174637 -0.02207220293872129 0.0021754224399651656 -0.011747855625773023
28018018 0.0020770729094652133 -0.01347837396305801 1.0002113671067518 -0.024359304726417015 1.0002113671067518 -0.024359304726417015 0.0020770729094652133 -0.01347837396305801
31020020 0.001960092175784113 -0.015336159769023656 1.0000336469260334 -0.02735921719166148 1.0000336469260334 -0.02735921719166148 0.001960092175784113 -0.015336159769023656
34022022 0.0016469814214225026 -0.01682852503006169 0.9995578872452792 -0.029975689593582128 0.9995578872452792 -0.029975689593582128 0.0016469814214225026 -0.01682852503006169
37024024 0.0012646156836367357 -0.018219475144074633 0.9998605632757877 -0.03267376245953493 0.9998605632757877 -0.03267376245953493 0.0012646156836367357 -0.018219475144074633
40026026 0.0011688633034726136 -0.019893025500105268 1.0000752163839128 -0.03520585300099497 1.0000752163839128 -0.03520585300099497 0.0011688633034726136 -0.019893025500105268
43028028 0.0006636700713631129 -0.021429379396111465 0.9994447947365274 -0.03770922403822627 0.9994447947365274 -0.03770922403822627 0.0006636700713631129 -0.021429379396111465
46030030 0.0001912776270222565 -0.02292153237486102 0.9994241527492647 -0.039958321632604626 0.9994241527492647 -0.039958321632604626 0.0001912776270222565 -0.02292153237486102
49032032 -0.0005536486496397317 -0.024542404777109363 0.9995763496311639 -0.04284077334634247 0.9995763496311639 -0.04284077334634247 -0.0005536486496397317 -0.024542404777109363
52034034 -0.001001860911868133 -0.026156121541410275 0.9993184264295899 -0.04550405510479234 0.9993184264295899 -0.04550405510479234 -0.001001860911868133 -0.026156121541410275
55036036 -0.0017051620250495693 -0.027551427547010152 0.9988573203515948 -0.047878064241137226 0.9988573203515948 -0.047878064241137226 -0.0017051620250495693 -0.027551427547010152
58038038 -0.002299049457652372 -0.029208001627468807 0.9989092716832965 -0.050437037525800935 0.9989092716832965 -0.050437037525800935 -0.002299049457652372 -0.029208001627468807
61040040 -0.0030185624288236778 -0.03016127490736072 0.998809575261501 -0.053207958144440175 0.998809575261501 -0.053207958144440175 -0.0030185624288236778 -0.03016127490736072
64042042 -0.003745536414024151 -0.031897063920185695 0.9987793738009259 -0.055896673053388246 0.9987793738009259 -0.055896673053388246 -0.003745536414024151 -0.031897063920185695
67044044 -0.004860228635800525 -0.0329681294242107 0.9983696404147319 -0.05837367225920206 0.9983696404147319 -0.05837367225920206 -0.004860228635800525 -0.0329681294242107
70046046 -0.005404762671584282 -0.03384682823247578 0.9981866510925945 -0.06126748574500615 0.9981866510925945 -0.06126748574500615 -0.005404762671584282 -0.03384682823247578
73048048 -0.006387877558252364 -0.034930180970859155 0.9979503289925468 -0.0640608464413187 0.9979503289925468 -0.0640608464413187 -0.006387877558252364 -0.034930180970859155
76050050 -0.006927644524369834 -0.036439903043511794 0.9977767216099942 -0.06661938750106562 0.9977767216099942 -0.06661938750106562 -0.006927644524369834 -0.036439903043511794
79052052 -0.00796309597777691 -0.03709466048819954 0.9978668458708513 -0.06942688871342569 0.9978668458708513 -0.06942688871342569 -0.00796309597777691 -0.03709466048819954
82054054 -0.009420778141418548 -0.038334540517898925 0.9978947471081705 -0.07158197066833577 0.9978947471081705 -0.07158197066833577 -0.009420778141418548 -0.038334540517898925
85056056 -0.010287254658407867 -0.03905470394342754 0.9974998330679361 -0.07479753568837165 0.9974998330679361 -0.07479753568837165 -0.010287254658407867 -0.03905470394342754
88058058 -0.01135796792839998 -0.03960192176046557 0.9973201749172828 -0.07675600648306989 0.9973201749172828 -0.07675600648306989 -0.01135796792839998 -0.03960192176046557
91060060 -0.012366986843449947 -0.04033626443942417 0.9976830063416167 -0.07958865751606414 0.9976830063416167 -0.07958865751606414 -0.012366986843449947 -0.04033626443942417
94062062 -0.01337316510436393 -0.040454219870715756 0.997345679918283 -0.08184516288448807 0.997345679918283 -0.08184516288448807 -0.01337316510436393 -0.040454219870715756
97064064 -0.01460363078664202 -0.0413551649817698 0.9967376303692055 -0.08527944945764906 0.9967376303692055 -0.08527944945764906 -0.01460363078664202 -0.0413551649817698
100066066 -0.015826037765894592 -0.041711370546356916 0.9968006763981997 -0.08724179219019221 0.9968006763981997 -0.08724179219019221 -0.015826037765894592 -0.041711370546356916
103068068 -0.016933124200157326 -0.04202237577464509 0.99616276083255 -0.09003959776357286 0.99616276083255 -0.09003959776357286 -0.016933124200157326 -0.04202237577464509
106070070 -0.018185545401596392 -0.04208642079900791 0.9957587533344113 -0.09345592392163837 0.9957587533344113 -0.09345592392163837 -0.018185545401596392 -0.04208642079900791
109072072 -0.019205208418162277 -0.04262180279323912 0.9958184246845688 -0.09565871361732163 0.9958184246845688 -0.09565871361732163 -0.019205208418162277 -0.04262180279323912
112074074 -0.020299779589216076 -0.04282980567441131 0.9953037998545611 -0.09823842682479142 0.9953037998545611 -0.09823842682479142 -0.020299779589216076 -0.04282980567441131
115076076 -0.021252449412735446 -0.043085310858621724 0.9953361587266288 -0.10018242057990895 0.9953361587266288 -0.10018242057990895 -0.021252449412735446 -0.043085310858621724
118078078 -0.02280527039692363 -0.04312594539471793 0.9951213275545012 -0.10347423442244971 0.9951213275545012 -0.10347423442244971 -0.02280527039692363 -0.04312594539471793
121080080 -0.023404913067052356 -0.043229230917595854 0.9943832846238978 -0.1058814318051784 0.9943832846238978 -0.1058814318051784 -0.023404913067052356 -0.043229230917595854
124082082 -0.02457954240689211 -0.042950404205730444 0.9944139733961015 -0.10877265105736905 0.9944139733961015 -0.10877265105736905 -0.02457954240689211 -0.042950404205730444
127084084 -0.025663913777752425 -0.04277950306357468 0.9939400996771501 -0.11141679171154915 0.9939400996771501 -0.11141679171154915 -0.025663913777752425 -0.04277950306357468
130086086 -0.026782078134839096 -0.042750090911816474 0.9939837650737138 -0.11319761164333103 0.9939837650737138 -0.11319761164333103 -0.026782078134839096 -0.042750090911816474
133088088 -0.02803797943815278 -0.042282311127613575 0.9927757669262729 -0.11701958910621449 0.9927757669262729 -0.11701958910621449 -0.02803797943815278 -0.042282311127613575
136090090 -0.02880647277031881 -0.041990184324077695 0.9929210362578904 -0.11855179267822397 0.9929210362578904 -0.11855179267822397 -0.02880647277031881 -0.041990184324077695
139092092 -0.029915744510934993 -0.0416257048474678 0.9923374016062828 -0.12248025231790675 0.9923374016062828 -0.12248025231790675 -0.029915744510934993 -0.0416257048474678
142094094 -0.03045946408127581 -0.04138307400009056 0.9920557515443801 -0.12534679674855462 0.9920557515443801 -0.12534679674855462 -0.03045946408127581 -0.04138307400009056
145096096 -0.03150112652416892 -0.04098598291525401 0.9921453499935415 -0.1271975939031811 0.9921453499935415 -0.1271975939031811 -0.03150112652416892 -0.04098598291525401
148098098 -0.031929619504767054 -0.04082303366697486 0.9912907311210988 -0.1266822571005879 0.9912907311210988 -0.1266822571005879 -0.031929619504767054 -0.04082303366697486
151100100 -0.03294441435913754 -0.03976168458685301 0.9915164703433139 -0.13314951240124867 0.9915164703433139 -0.13314951240124867 -0.03294441435913754 -0.03976168458685301
154102102 -0.033751468696426604 -0.039075444531382106 0.9901679422443546 -0.1342525622700152 0.9901679422443546 -0.1342525622700152 -0.033751468696426604 -0.039075444531382106
157104104 -0.0348493940627279 -0.03863176615521603 0.9902896120305292 -0.13717491803542192 0.9902896120305292 -0.13717491803542192 -0.0348493940627279 -0.03863176615521603
160106106 -0.03526117214110046 -0.038132540780730646 0.98967488500967 -0.14022552870952956 0.98967488500967 -0.14022552870952956 -0.03526117214110046 -0.038132540780730646
163108108 -0.03603385541095776 -0.03728778431610474 0.9892433731979698 -0.14273660799839788 0.9892433731979698 -0.14273660799839788 -0.03603385541095776 -0.03728778431610474
166110110 -0.036623438910680595 -0.03690807705013995 0.9877979925011994 -0.14447674465800642 0.9877979925011994 -0.14447674465800642 -0.036623438910680595 -0.03690807705013995
169112112 -0.037152330100465994 -0.03602658492856568 0.988292542878324 -0.14821201532794168 0.988292542878324 -0.14821201532794168 -0.037152330100465994 -0.03602658492856568
172114114 -0.03773845301034263 -0.03546842289260946 0.987675821104277 -0.14982125721873635 0.987675821104277 -0.14982125721873635 -0.03773845301034263 -0.03546842289260946
175116116 -0.03875479252105877 -0.034755496241370885 0.9868070753478361 -0.15221020132473134 0.9868070753478361 -0.15221020132473134 -0.03875479252105877 -0.034755496241370885
178118118 -0.03862063832998933 -0.034033603732964726 0.9865184875406767 -0.154907508509098 0.9865184875406767 -0.154907508509098 -0.03862063832998933 -0.034033603732964726
181120120 -0.03923484928484324 -0.033364903078499784 0.9867783665816051 -0.15771817751229017 0.9867783665816051 -0.15771817751229017 -0.03923484928484324 -0.033364903078499784
184122122 -0.03958353749891119 -0.03285976856449785 0.9862620390953915 -0.16000659771724413 0.9862620390953915 -0.16000659771724413 -0.03958353749891119 -0.03285976856449785
187124124 -0.040012741146667065 -0.03204653842101187 0.9852515558941668 -0.16202048500331334 0.9852515558941668 -0.16202048500331334 -0.040012741146667065 -0.03204653842101187
190126126 -0.04055837522161509 -0.031506889285578675 0.9849288178147234 -0.16519625567066432 0.9849288178147234 -0.16519625567066432 -0.04055837522161509 -0.031506889285578675
193128128 -0.04089732431528837 -0.030906671515635295 0.9836026514024423 -0.167856876266671 0.9836026514024423 -0.167856876266671 -0.04089732431528837 -0.030906671515635295
196130130 -0.04109739381525056 -0.030545930525959438 0.9837663669852368 -0.17041872263890828 0.9837663669852368 -0.17041872263890828 -0.04109739381525056 -0.030545930525959438
199132132 -0.041380299132430735 -0.029983617343946466 0.9831041440125687 -0.17282425256803374 0.9831041440125687 -0.17282425256803374 -0.041380299132430735 -0.029983617343946466
202134134 -0.04160583363848277 -0.029661559600939913 0.9824167498859363 -0.17444924344014595 0.9824167498859363 -0.17444924344014595 -0.04160583363848277 -0.029661559600939913
205136136 -0.04149726987555358 -0.02921501677516839 0.9816430282519822 -0.17739680036151878 0.9816430282519822 -0.17739680036151878 -0.04149726987555358 -0.02921501677516839
208138138 -0.04202389416968952 -0.028844917689197717 0.9813165233502994 -0.18054531588972594 0.9813165233502994 -0.18054531588972594 -0.04202389416968952 -0.028844917689197717
211140140 -0.04224615597237041 -0.028826467573229646 0.9807778468597275 -0.18198404046067887 0.9807778468597275 -0.18198404046067887 -0.04224615597237041 -0.028826467573229646
214142142 -0.04222402260208497 -0.028196348529657113 0.9808953458296539 -0.18464643267061248 0.9808953458296539 -0.18464643267061248 -0.04222402260208497 -0.028196348529657113
217144144 -0.042173636515586546 -0.02811285755405048 0.9797391420962676 -0.18790317368011777 0.9797391420962676 -0.18790317368011777 -0.042173636515586546 -0.02811285755405048
220146146 -0.042530652095992307 -0.027778180078124253 0.9785883460085283 -0.1898251941496331 0.9785883460085283 -0.1898251941496331 -0.042530652095992307 -0.027778180078124253
223148148 -0.04216310047244756 -0.027747143306056397 0.979245681911336 -0.19241601678025105 0.979245681911336 -0.19241601678025105 -0.04216310047244756 -0.027747143306056397
226150150 -0.042323847591140586 -0.027659127461871717 0.9779642984002016 -0.1940704947696045 0.9779642984002016 -0.1940704947696045 -0.042323847591140586 -0.027659127461871717
229152152 -0.04279901096605825 -0.027607505764539506 0.9778238510641188 -0.19708757742924327 0.9778238510641188 -0.19708757742924327 -0.04279901096605825 -0.027607505764539506
232154154 -0.04276929161864217 -0.027503444377406018 0.9771451664129961 -0.1993347869127288 0.9771451664129961 -0.1993347869127288 -0.04276929161864217 -0.027503444377406018
235156156 -0.04294359173895387 -0.027610334318819905 0.9765923083277452 -0.2024859442870863 0.9765923083277452 -0.2024859442870863 -0.04294359173895387 -0.027610334318819905
238158158 -0.04233808169675124 -0.027806630079973978 0.9755844399598953 -0.20493636403062077 0.9755844399598953 -0.20493636403062077 -0.04233808169675124 -0.027806630079973978
241160160 -0.04254914703870334 -0.028051785884457524 0.9748260424253532 -0.20605803756882468 0.9748260424253532 -0.20605803756882468 -0.04254914703870334 -0.028051785884457524
244162162 -0.04219752910858339 -0.028493355332061838 0.9742031670499282 -0.20946311033521586 0.9742031670499282 -0.20946311033521586 -0.04219752910858339 -0.028493355332061838
247164164 -0.04241300890150403 -0.028764331383755268 0.9738103036873235 -0.2116244425642881 0.9738103036873235 -0.2116244425642881 -0.04241300890150403 -0.028764331383755268
250166166 -0.042209237896425465 -0.02920637686901805 0.9731090006546179 -0.2136350731322986 0.9731090006546179 -0.2136350731322986 -0.042209237896425465 -0.02920637686901805
253168168 -0.0421820509184154 -0.029838797931818296 0.9723140704806637 -0.21692336815356325 0.9723140704806637 -0.21692336815356325 -0.0421820509184154 -0.029838797931818296
256170170 -0.042136281256944276 -0.03038074308654071 0.9716019190101002 -0.22015590051522732 0.9716019190101002 -0.22015590051522732 -0.042136281256944276 -0.03038074308654071
259172172 -0.04217935316184854 -0.03067319115898118 0.9711383811489402 -0.2219604981768786 0.9711383811489402 -0.2219604981768786 -0.04217935316184854 -0.03067319115898118
262174174 -0.04230593453737979 -0.0314852353501007 0.9697281184618525 -0.22366421582773643 0.9697281184618525 -0.22366421582773643 -0.04230593453737979 -0.0314852353501007
265176176 -0.04224751941211519 -0.032050195657302515 0.9704095327354093 -0.22556562666798624 0.9704095327354093 -0.22556562666798624 -0.04224751941211519 -0.032050195657302515
268178178 -0.04182642130656738 -0.03303284118159942 0.9686844837815423 -0.22933415342793717 0.9686844837815423 -0.22933415342793717 -0.04182642130656738 -0.03303284118159942
271180180 -0.042265693382660334 -0.03354126235831785 0.9692747791011727 -0.23123576444387212 0.9692747791011727 -0.23123576444387212 -0.042265693382660334 -0.03354126235831785
274182182 -0.04193976169497314 -0.03463492950834521 0.9676892210370236 -0.23412256823216113 0.9676892210370236 -0.23412256823216113 -0.04193976169497314 -0.03463492950834521
277184184 -0.042468229230381016 -0.03518174586955263 0.9691777224494206 -0.2371986650960317 0.9691777224494206 -0.2371986650960317 -0.042468229230381016 -0.03518174586955263
280186186 -0.042246665338472676 -0.036389201472733425 0.9664972088241298 -0.23965982004249178 0.9664972088241298 -0.23965982004249178 -0.042246665338472676 -0.036389201472733425
283188188 -0.04240571462318965 -0.03750693878476195 0.9661746951496779 -0.24183531652539828 0.9661746951496779 -0.24183531652539828 -0.04240571462318965 -0.03750693878476195
286190190 -0.042241622824452 -0.03804478218912325 0.965403263859955 -0.243018817161874 0.965403263859955 -0.243018817161874 -0.042241622824452 -0.03804478218912325
289192192 -0.0423339571149034 -0.03915114005034516 0.9628124200392187 -0.24818902598092593 0.9628124200392187 -0.24818902598092593 -0.0423339571149034 -0.03915114005034516
292194194 -0.0427465276580612 -0.0405407137591084 0.965134857738836 -0.24651608594413751 0.965134857738836 -0.24651608594413751 -0.0427465276580612 -0.0405407137591084
295196196 -0.04221489490158803 -0.041751973320896564 0.9642427145305063 -0.2504103201315374 0.9642427145305063 -0.2504103201315374 -0.04221489490158803 -0.041751973320896564
298198198 -0.0424201308104985 -0.04309662600134625 0.962034986902044 -0.25441695420651733 0.962034986902044 -0.25441695420651733 -0.0424201308104985 -0.04309662600134625
301200200 -0.042294361373099436 -0.044308258974073436 0.9602724931685755 -0.2550926728934071 0.9602724931685755 -0.2550926728934071 -0.042294361373099436 -0.044308258974073436
304202202 -0.04286133767651657 -0.045576653365624116 0.9601818906525059 -0.25988396465485614 0.9601818906525059 -0.25988396465485614 -0.04286133767651657 -0.045576653365624116
307204204 -0.04286076614322137 -0.04670527479088789 0.9605908888496388 -0.26164349809247445 0.9605908888496388 -0.26164349809247445 -0.04286076614322137 -0.04670527479088789
310206206 -0.042923721554602584 -0.04831206380566269 0.9597964493861877 -0.26367567425059685 0.9597964493861877 -0.26367567425059685 -0.042923721554602584 -0.04831206380566269
313208208 -0.04325456274014438 -0.04974756453806126 0.9584738796760668 -0.2679327707352697 0.9584738796760668 -0.2679327707352697 -0.04325456274014438 -0.04974756453806126
316210210 -0.04378460506846001 -0.051175711808701625 0.959443408340326 -0.26822295989894923 0.959443408340326 -0.26822295989894923 -0.04378460506846001 -0.051175711808701625
319212212 -0.04347912673793578 -0.05249993443243712 0.9566487121278652 -0.27249172530225774 0.9566487121278652 -0.27249172530225774 -0.04347912673793578 -0.05249993443243712
322214214 -0.04428367109728481 -0.05378108712397095 0.957381948156497 -0.27380597484194596 0.957381948156497 -0.27380597484194596 -0.04428367109728481 -0.05378108712397095
325216216 -0.04417123773837056 -0.055487037176304856 0.9558097916083054 -0.2759012288210918 0.9558097916083054 -0.2759012288210918 -0.04417123773837056 -0.055487037176304856
328218218 -0.04450026237123043 -0.05689000238216807 0.9538142299324278 -0.27913956938115586 0.9538142299324278 -0.27913956938115586 -0.04450026237123043 -0.05689000238216807
331220220 -0.04493032880694018 -0.05827206336480147 0.9543560770716232 -0.2815826434772654 0.9543560770716232 -0.2815826434772654 -0.04493032880694018 -0.05827206336480147
334222222 -0.04522184599625125 -0.0597989339016029 0.9533189485452425 -0.28296904438162773 0.9533189485452425 -0.28296904438162773 -0.04522184599625125 -0.0597989339016029
337224224 -0.04557368080429887 -0.06135288873959231 0.95113241481716 -0.2871633138279382 0.95113241481716 -0.2871633138279382 -0.04557368080429887 -0.06135288873959231
