! Touchstone file generated by RF Tool Suite
# Hz S RI R 50
100000 -1.0125593136257451 -0.013006092666619682 1.6705133020877838e-05 1.191161572933197e-05 1.6705133020877838e-05 1.191161572933197e-05 -1.0125593136257451 -0.013006092666619682
1100900 -0.9978291522412095 1.3904326330867626e-06 1.8487684428691864e-05 -1.321546733379364e-06 1.8487684428691864e-05 -1.321546733379364e-06 -0.9978291522412095 1.3904326330867626e-06
2101801 -0.9990672252338181 0.0016170305613356472 -6.081536412239075e-06 4.2283907532691956e-05 -6.081536412239075e-06 4.2283907532691956e-05 -0.9990672252338181 0.0016170305613356472
3102702 -0.9993435455963865 0.002471406488878555 -3.7931837141513824e-05 -2.0295381546020508e-05 -3.7931837141513824e-05 -2.0295381546020508e-05 -0.9993435455963865 0.002471406488878555
4103603 -0.9998595918689018 0.003462762277337705 3.063492476940155e-05 -1.4887191355228424e-05 3.063492476940155e-05 -1.4887191355228424e-05 -0.9998595918689018 0.003462762277337705
5104504 -0.9998447638532549 0.004616960252104219 2.0721927285194397e-05 -5.161762237548828e-05 2.0721927285194397e-05 -5.161762237548828e-05 -0.9998447638532549 0.004616960252104219
6105405 -0.9996325556108488 0.005456926654585668 -2.2287480533123016e-05 1.2725591659545898e-05 -2.2287480533123016e-05 1.2725591659545898e-05 -0.9996325556108488 0.005456926654585668
7106306 -0.9997953249261203 0.006923920172112955 4.383362829685211e-05 -6.156042218208313e-07 4.383362829685211e-05 -6.156042218208313e-07 -0.9997953249261203 0.006923920172112955
8107207 -0.9998229161020624 0.007699097356908147 -3.0144117772579193e-05 -3.860890865325928e-05 -3.0144117772579193e-05 -3.860890865325928e-05 -0.9998229161020624 0.007699097356908147
9108108 -0.9999006131382318 0.00847282302112663 7.181428372859955e-06 -4.698522388935089e-06 7.181428372859955e-06 -4.698522388935089e-06 -0.9999006131382318 0.00847282302112663
10109009 -1.0004081277274193 0.00986761251729758 2.191588282585144e-05 4.151836037635803e-06 2.191588282585144e-05 4.151836037635803e-06 -1.0004081277274193 0.00986761251729758
11109909 -1.0001094591607362 0.011128249016355661 -1.43442302942276e-05 5.712732672691345e-06 -1.43442302942276e-05 5.712732672691345e-06 -1.0001094591607362 0.011128249016355661
12110810 -0.9999788608551493 0.011879517365550343 -6.258487701416016e-06 -1.2369826436042786e-05 -6.258487701416016e-06 -1.2369826436042786e-05 -0.9999788608551493 0.011879517365550343
13111711 -1.0000185200711291 0.013202553117374246 8.576549589633942e-06 -3.472529351711273e-05 8.576549589633942e-06 -3.472529351711273e-05 -1.0000185200711291 0.013202553117374246
14112612 -0.9994967831162009 0.014013627690587524 -3.2067298889160156e-05 -1.1756084859371185e-05 -3.2067298889160156e-05 -1.1756084859371185e-05 -0.9994967831162009 0.014013627690587524
15113513 -0.9998352171574523 0.015209558525798705 -1.0660849511623383e-05 1.648440957069397e-06 -1.0660849511623383e-05 1.648440957069397e-06 -0.9998352171574523 0.015209558525798705
16114414 -0.9998006057772939 0.01577648341242401 -2.1027401089668274e-05 -1.62515789270401e-06 -2.1027401089668274e-05 -1.62515789270401e-06 -0.9998006057772939 0.01577648341242401
17115315 -0.9999892802956423 0.016860443804385797 2.475641667842865e-05 -2.1648593246936798e-05 2.475641667842865e-05 -2.1648593246936798e-05 -0.9999892802956423 0.016860443804385797
18116216 -0.9999778107477524 0.017812007215400116 2.6261433959007263e-05 4.770699888467789e-05 2.6261433959007263e-05 4.770699888467789e-05 -0.9999778107477524 0.017812007215400116
19117117 -0.9998834128081137 0.01876551783532237 2.82973051071167e-05 1.865532249212265e-05 2.82973051071167e-05 1.865532249212265e-05 -0.9998834128081137 0.01876551783532237
20118018 -0.9997593058468814 0.019977517451462742 1.778639853000641e-05 3.357697278261185e-05 1.778639853000641e-05 3.357697278261185e-05 -0.9997593058468814 0.019977517451462742
21118918 -0.9997558676921905 0.02052714986673057 -2.6943162083625793e-05 -1.3247132301330566e-05 -2.6943162083625793e-05 -1.3247132301330566e-05 -0.9997558676921905 0.02052714986673057
22119819 -0.9994244996760715 0.02197123384537885 3.857072442770004e-05 1.7704442143440247e-06 3.857072442770004e-05 1.7704442143440247e-06 -0.9994244996760715 0.02197123384537885
23120720 -0.9991189660767749 0.022965578353892683 -4.325155168771744e-05 6.537884473800659e-06 -4.325155168771744e-05 6.537884473800659e-06 -0.9991189660767749 0.022965578353892683
24121621 -0.9990762627529364 0.0236887819890025 2.7352944016456604e-05 1.5201978385448456e-05 2.7352944016456604e-05 1.5201978385448456e-05 -0.9990762627529364 0.0236887819890025
25122522 -0.9993790216586363 0.024495658689581576 -3.5419128835201263e-05 -5.150213837623596e-06 -3.5419128835201263e-05 -5.150213837623596e-06 -0.9993790216586363 0.024495658689581576
26123423 -0.9996126350084507 0.025883413180418605 -2.8789974749088287e-05 3.7894584238529205e-05 -2.8789974749088287e-05 3.7894584238529205e-05 -0.9996126350084507 0.025883413180418605
27124324 -0.9992835862723319 0.027372949177422567 -1.3326294720172882e-05 5.221925675868988e-05 -1.3326294720172882e-05 5.221925675868988e-05 -0.9992835862723319 0.027372949177422567
28125225 -0.9993725359732564 0.027701494262771322 1.2653879821300507e-05 -1.9560568034648895e-05 1.2653879821300507e-05 -1.9560568034648895e-05 -0.9993725359732564 0.027701494262771322
29126126 -0.9992691777277702 0.029064146879113427 -2.5276094675064087e-06 5.01023605465889e-05 -2.5276094675064087e-06 5.01023605465889e-05 -0.9992691777277702 0.029064146879113427
30127027 -0.9993790105812954 0.02984794583208122 2.1340325474739075e-05 -1.6624107956886292e-06 2.1340325474739075e-05 -1.6624107956886292e-06 -0.9993790105812954 0.02984794583208122
31127927 -0.9997139431467962 0.030538147073563858 -1.51805579662323e-07 3.0846334993839264e-05 -1.51805579662323e-07 3.0846334993839264e-05 -0.9997139431467962 0.030538147073563858
32128828 -0.999282645691575 0.03185553456227756 -2.53971666097641e-06 -1.6784295439720154e-05 -2.53971666097641e-06 -1.6784295439720154e-05 -0.999282645691575 0.03185553456227756
33129729 -0.9990749356962565 0.03262872255134406 1.4575198292732239e-05 -2.2788532078266144e-05 1.4575198292732239e-05 -2.2788532078266144e-05 -0.9990749356962565 0.03262872255134406
34130630 -0.99882099021472 0.03354082793122437 -4.5340508222579956e-05 2.063065767288208e-05 -4.5340508222579956e-05 2.063065767288208e-05 -0.99882099021472 0.03354082793122437
35131531 -0.9988226179461962 0.034664585625612004 -7.295981049537659e-06 -6.807968020439148e-07 -7.295981049537659e-06 -6.807968020439148e-07 -0.9988226179461962 0.034664585625612004
36132432 -0.9993854946155248 0.035251336825310016 7.965601980686188e-06 3.361143171787262e-06 7.965601980686188e-06 3.361143171787262e-06 -0.9993854946155248 0.035251336825310016
37133333 -0.9987561980914196 0.03665341276056895 -4.1602179408073425e-06 3.352481871843338e-05 -4.1602179408073425e-06 3.352481871843338e-05 -0.9987561980914196 0.03665341276056895
38134234 -0.9987334492373433 0.037569413091332035 -1.6407109797000885e-05 1.641828566789627e-05 -1.6407109797000885e-05 1.641828566789627e-05 -0.9987334492373433 0.037569413091332035
39135135 -0.9990636530888107 0.03849588169778517 -7.925555109977722e-06 5.485489964485168e-07 -7.925555109977722e-06 5.485489964485168e-07 -0.9990636530888107 0.03849588169778517
40136036 -0.9989117491150423 0.039514638080131975 1.0620802640914917e-05 1.7488375306129456e-05 1.0620802640914917e-05 1.7488375306129456e-05 -0.9989117491150423 0.039514638080131975
41136936 -0.9983178098735278 0.04029201525838609 3.2782554626464844e-06 5.0902366638183594e-05 3.2782554626464844e-06 5.0902366638183594e-05 -0.9983178098735278 0.04029201525838609
42137837 -0.9987801803608373 0.04123335605266375 2.4159438908100128e-05 -1.4174729585647583e-05 2.4159438908100128e-05 -1.4174729585647583e-05 -0.9987801803608373 0.04123335605266375
43138738 -0.9985233773729886 0.04242876981255187 -8.665025234222412e-06 -1.1194497346878052e-06 -8.665025234222412e-06 -1.1194497346878052e-06 -0.9985233773729886 0.04242876981255187
44139639 -0.9989328888823789 0.04316683515976439 -1.2294389307498932e-05 1.9321218132972717e-05 -1.2294389307498932e-05 1.9321218132972717e-05 -0.9989328888823789 0.04316683515976439
45140540 -0.998892442509762 0.04442824810601035 -2.716667950153351e-06 7.6051801443099976e-06 -2.716667950153351e-06 7.6051801443099976e-06 -0.998892442509762 0.04442824810601035
46141441 -0.9984408150162462 0.04542346884733044 1.7153099179267883e-05 1.9649043679237366e-05 1.7153099179267883e-05 1.9649043679237366e-05 -0.9984408150162462 0.04542346884733044
47142342 -0.9991129187815505 0.04649990188495187 1.0895542800426483e-05 1.7335638403892517e-05 1.0895542800426483e-05 1.7335638403892517e-05 -0.9991129187815505 0.04649990188495187
48143243 -0.9983712980457393 0.04776166351506948 -9.631738066673279e-06 -1.3153068721294403e-05 -9.631738066673279e-06 -1.3153068721294403e-05 -0.9983712980457393 0.04776166351506948
49144144 -0.998618632540424 0.04875179164931157 1.2930482625961304e-05 -4.950910806655884e-06 1.2930482625961304e-05 -4.950910806655884e-06 -0.998618632540424 0.04875179164931157
50145045 -0.9983850347835233 0.04941653746851821 4.388205707073212e-05 3.446824848651886e-06 4.388205707073212e-05 3.446824848651886e-06 -0.9983850347835233 0.04941653746851821
51145945 -0.9980386165248356 0.050151838698983556 2.1765008568763733e-06 -3.0180439352989197e-05 2.1765008568763733e-06 -3.0180439352989197e-05 -0.9980386165248356 0.050151838698983556
52146846 -0.997948991282858 0.051626534906408866 -5.0943344831466675e-06 4.47593629360199e-06 -5.0943344831466675e-06 4.47593629360199e-06 -0.997948991282858 0.051626534906408866
53147747 -0.9980833303556887 0.052465141200549716 2.3011118173599243e-05 -1.1382624506950378e-05 2.3011118173599243e-05 -1.1382624506950378e-05 -0.9980833303556887 0.052465141200549716
54148648 -0.998119939288735 0.053738459421712 7.12275505065918e-06 4.709698259830475e-06 7.12275505065918e-06 4.709698259830475e-06 -0.998119939288735 0.053738459421712
55149549 -0.9982582768710209 0.05435752394269837 -4.268251359462738e-06 1.2740492820739746e-06 -4.268251359462738e-06 1.2740492820739746e-06 -0.9982582768710209 0.05435752394269837
56150450 -0.9979561179238635 0.05541186653431975 6.632879376411438e-06 -1.582317054271698e-05 6.632879376411438e-06 -1.582317054271698e-05 -0.9979561179238635 0.05541186653431975
57151351 -0.9977914860211193 0.05663052770019898 1.823529601097107e-06 5.248934030532837e-06 1.823529601097107e-06 5.248934030532837e-06 -0.9977914860211193 0.05663052770019898
58152252 -0.9979851796381333 0.05761868128119355 -1.602713018655777e-05 -2.965424209833145e-05 -1.602713018655777e-05 -2.965424209833145e-05 -0.9979851796381333 0.05761868128119355
59153153 -0.9974177873321489 0.05857041036888348 -1.355540007352829e-05 1.610536128282547e-05 -1.355540007352829e-05 1.610536128282547e-05 -0.9974177873321489 0.05857041036888348
60154054 -0.9973201545404852 0.05954994356234162 1.1731870472431183e-05 7.275491952896118e-06 1.1731870472431183e-05 7.275491952896118e-06 -0.9973201545404852 0.05954994356234162
61154954 -0.9972959218659064 0.06062967253978664 -8.950009942054749e-06 2.2125430405139923e-05 -8.950009942054749e-06 2.2125430405139923e-05 -0.9972959218659064 0.06062967253978664
62155855 -0.996859215912579 0.06149834952394163 -1.6884878277778625e-06 3.290735185146332e-05 -1.6884878277778625e-06 3.290735185146332e-05 -0.996859215912579 0.06149834952394163
63156756 -0.9973898589078716 0.06250529188221149 -1.368112862110138e-05 2.848077565431595e-05 -1.368112862110138e-05 2.848077565431595e-05 -0.9973898589078716 0.06250529188221149
64157657 -0.9973682109827892 0.06395277746298504 -3.421027213335037e-05 8.573755621910095e-06 -3.421027213335037e-05 8.573755621910095e-06 -0.9973682109827892 0.06395277746298504
65158558 -0.9971259720168092 0.06458178010908973 1.8341466784477234e-05 7.801689207553864e-06 1.8341466784477234e-05 7.801689207553864e-06 -0.9971259720168092 0.06458178010908973
66159459 -0.9969871430060865 0.06570400085473593 1.8812716007232666e-06 -3.4081749618053436e-05 1.8812716007232666e-06 -3.4081749618053436e-05 -0.9969871430060865 0.06570400085473593
67160360 -0.9970033701479567 0.06714296190339182 -1.2097880244255066e-06 -3.1217001378536224e-05 -1.2097880244255066e-06 -3.1217001378536224e-05 -0.9970033701479567 0.06714296190339182
68161261 -0.9967997137778967 0.06760364284419476 -5.3727999329566956e-06 -1.015886664390564e-05 -5.3727999329566956e-06 -1.015886664390564e-05 -0.9967997137778967 0.06760364284419476
69162162 -0.9971359702359538 0.06898502809037158 -1.4230608940124512e-06 2.140924334526062e-05 -1.4230608940124512e-06 2.140924334526062e-05 -0.9971359702359538 0.06898502809037158
70163063 -0.9966160237459344 0.0701507295918151 2.429913729429245e-05 3.2493844628334045e-06 2.429913729429245e-05 3.2493844628334045e-06 -0.9966160237459344 0.0701507295918151
71163963 -0.9962279755647118 0.07068737751312146 -1.3170763850212097e-05 -3.298744559288025e-05 -1.3170763850212097e-05 -3.298744559288025e-05 -0.9962279755647118 0.07068737751312146
72164864 -0.9959816901317826 0.07176205109742897 1.4808028936386108e-06 9.350478649139404e-06 1.4808028936386108e-06 9.350478649139404e-06 -0.9959816901317826 0.07176205109742897
73165765 -0.9963521040358856 0.0731560541086738 1.6748905181884766e-05 3.0677765607833862e-06 1.6748905181884766e-05 3.0677765607833862e-06 -0.9963521040358856 0.0731560541086738
74166666 -0.996155385016002 0.07394782715375026 7.2391703724861145e-06 2.3631379008293152e-05 7.2391703724861145e-06 2.3631379008293152e-05 -0.996155385016002 0.07394782715375026
75167567 -0.9959800761918364 0.07505250613099844 -1.232139766216278e-06 -2.7623027563095093e-05 -1.232139766216278e-06 -2.7623027563095093e-05 -0.9959800761918364 0.07505250613099844
76168468 -0.9959877908087237 0.07661791310338259 6.708316504955292e-06 1.938082277774811e-06 6.708316504955292e-06 1.938082277774811e-06 -0.9959877908087237 0.07661791310338259
77169369 -0.9960615213218944 0.07727836881993126 -3.2356008887290955e-05 1.7109327018260956e-05 -3.2356008887290955e-05 1.7109327018260956e-05 -0.9960615213218944 0.07727836881993126
78170270 -0.995330655350167 0.07823183996074756 -1.1275522410869598e-05 2.812407910823822e-05 -1.1275522410869598e-05 2.812407910823822e-05 -0.995330655350167 0.07823183996074756
79171171 -0.996182480806292 0.07933635337033505 -5.493033677339554e-05 -3.654882311820984e-05 -5.493033677339554e-05 -3.654882311820984e-05 -0.996182480806292 0.07933635337033505
80172072 -0.99558212145759 0.08037428781131714 -3.4183263778686523e-05 3.5229139029979706e-05 -3.4183263778686523e-05 3.5229139029979706e-05 -0.99558212145759 0.08037428781131714
81172972 -0.9954139331663114 0.08105936123181637 -5.6770630180835724e-05 5.492847412824631e-05 -5.6770630180835724e-05 5.492847412824631e-05 -0.9954139331663114 0.08105936123181637
82173873 -0.9955083501293728 0.08266151455555705 -6.0228630900382996e-06 -3.556255251169205e-05 -6.0228630900382996e-06 -3.556255251169205e-05 -0.9955083501293728 0.08266151455555705
83174774 -0.995756848140762 0.08325317539922232 -5.0965696573257446e-05 -2.972874790430069e-05 -5.0965696573257446e-05 -2.972874790430069e-05 -0.995756848140762 0.08325317539922232
84175675 -0.9952404445026942 0.08418583747102835 1.4075078070163727e-05 -2.5593675673007965e-05 1.4075078070163727e-05 -2.5593675673007965e-05 -0.9952404445026942 0.08418583747102835
85176576 -0.9948088189652803 0.08593836910102258 -2.0582228899002075e-05 -3.069266676902771e-05 -2.0582228899002075e-05 -3.069266676902771e-05 -0.9948088189652803 0.08593836910102258
86177477 -0.994968506412163 0.08616230914472028 -1.334305852651596e-05 -3.7280842661857605e-06 -1.334305852651596e-05 -3.7280842661857605e-06 -0.994968506412163 0.08616230914472028
87178378 -0.99474243597751 0.08745914488437381 2.098921686410904e-05 -1.1380761861801147e-06 2.098921686410904e-05 -1.1380761861801147e-06 -0.99474243597751 0.08745914488437381
88179279 -0.9945602985345068 0.08879131148321168 -2.60230153799057e-05 -6.410293281078339e-06 -2.60230153799057e-05 -6.410293281078339e-06 -0.9945602985345068 0.08879131148321168
89180180 -0.9949598998125652 0.08938194761152178 -7.156282663345337e-06 -1.9797123968601227e-05 -7.156282663345337e-06 -1.9797123968601227e-05 -0.9949598998125652 0.08938194761152178
90181081 -0.9943251450466695 0.09037129067409248 -4.262663424015045e-06 2.4944543838500977e-05 -4.262663424015045e-06 2.4944543838500977e-05 -0.9943251450466695 0.09037129067409248
91181981 -0.9942849688430219 0.0914341049581843 4.131346940994263e-06 -1.8758699297904968e-05 4.131346940994263e-06 -1.8758699297904968e-05 -0.9942849688430219 0.0914341049581843
92182882 -0.9939923799684656 0.0928068266923859 -4.53311949968338e-05 1.1166557669639587e-05 -4.53311949968338e-05 1.1166557669639587e-05 -0.9939923799684656 0.0928068266923859
93183783 -0.994052280193006 0.09340185134396214 -2.1494925022125244e-06 -3.1735748052597046e-05 -2.1494925022125244e-06 -3.1735748052597046e-05 -0.994052280193006 0.09340185134396214
94184684 -0.9934543584092133 0.0949641397696508 8.286908268928528e-06 -2.3232772946357727e-05 8.286908268928528e-06 -2.3232772946357727e-05 -0.9934543584092133 0.0949641397696508
95185585 -0.9936859997542747 0.09581693210865114 -6.615184247493744e-06 2.3649074137210846e-05 -6.615184247493744e-06 2.3649074137210846e-05 -0.9936859997542747 0.09581693210865114
96186486 -0.9932944567365073 0.09672270265222141 -4.94709238409996e-05 2.049654722213745e-05 -4.94709238409996e-05 2.049654722213745e-05 -0.9932944567365073 0.09672270265222141
97187387 -0.9933612437721683 0.09822475982756965 3.257952630519867e-05 2.3181550204753876e-05 3.257952630519867e-05 2.3181550204753876e-05 -0.9933612437721683 0.09822475982756965
98188288 -0.992851473389297 0.09904161745508575 -3.720354288816452e-05 -2.5117769837379456e-06 -3.720354288816452e-05 -2.5117769837379456e-06 -0.992851473389297 0.09904161745508575
99189189 -0.9929922813674159 0.1003955025377815 -6.0694292187690735e-06 2.70819291472435e-05 -6.0694292187690735e-06 2.70819291472435e-05 -0.9929922813674159 0.1003955025377815
100190090 -0.9929120834265674 0.10146239920201364 2.4527311325073242e-05 -2.0697712898254395e-05 2.4527311325073242e-05 -2.0697712898254395e-05 -0.9929120834265674 0.10146239920201364
101190990 -0.9922188241081383 0.10229948199029086 -2.8120353817939758e-05 4.1727907955646515e-05 -2.8120353817939758e-05 4.1727907955646515e-05 -0.9922188241081383 0.10229948199029086
102191891 -0.9922730088861561 0.10455482029584885 4.163011908531189e-07 2.1463260054588318e-05 4.163011908531189e-07 2.1463260054588318e-05 -0.9922730088861561 0.10455482029584885
103192792 -0.9918369130234583 0.10473689305488379 1.4336779713630676e-05 4.0751881897449493e-05 1.4336779713630676e-05 4.0751881897449493e-05 -0.9918369130234583 0.10473689305488379
104193693 -0.9917806953971352 0.10558211923050645 -2.2310763597488403e-05 -3.541633486747742e-05 -2.2310763597488403e-05 -3.541633486747742e-05 -0.9917806953971352 0.10558211923050645
105194594 -0.9916470561410418 0.10754720064237544 -2.362579107284546e-05 -2.1317973732948303e-05 -2.362579107284546e-05 -2.1317973732948303e-05 -0.9916470561410418 0.10754720064237544
106195495 -0.991328848128073 0.10898406282251676 1.7340295016765594e-05 1.113303005695343e-05 1.7340295016765594e-05 1.113303005695343e-05 -0.991328848128073 0.10898406282251676
107196396 -0.9909478920297552 0.10847385116610046 -3.3750198781490326e-05 3.445334732532501e-05 -3.3750198781490326e-05 3.445334732532501e-05 -0.9909478920297552 0.10847385116610046
108197297 -0.9908711638549464 0.11100133266109916 3.053341060876846e-05 -4.414469003677368e-06 3.053341060876846e-05 -4.414469003677368e-06 -0.9908711638549464 0.11100133266109916
109198198 -0.9912589251152569 0.11186241651758864 -1.3457611203193665e-05 1.691468060016632e-05 -1.3457611203193665e-05 1.691468060016632e-05 -0.9912589251152569 0.11186241651758864
