! Touchstone file generated by RF Tool Suite
# Hz S RI R 50
100000 -1.0157234477632242 -0.016260204300158978
1100900 -0.9969753724027983 -0.00045871596523327775
2101801 -0.9987278921849725 0.0011678663393919614
3102702 -0.9994850002313911 0.0025566619936657105
4103603 -0.9997349560766943 0.0030194207615811216
5104504 -0.9994864552257154 0.0044403999937877425
6105405 -0.9999574869345924 0.0052333804008463675
7106306 -1.0001122356371732 0.00640930977458172
8107207 -0.9999197419919569 0.007427226142849864
9108108 -1.0000376550508585 0.008247540757296695
10109009 -1.0003017865782713 0.009615398944634685
11109909 -1.0002016222743493 0.010597165368981932
12110810 -1.0005184538543639 0.011517208862793818
13111711 -1.0002115106721445 0.012738946127009192
14112612 -0.9997706915794294 0.013937977176384111
15113513 -1.0002868227958965 0.01503516911476284
16114414 -1.0000103117604728 0.01573159907057974
17115315 -1.0001710580041085 0.016567138976395324
18116216 -1.000142891346291 0.01765721657796341
19117117 -0.9998786366528355 0.01865849386391941
20118018 -1.0001826109232883 0.01921986576138526
21118918 -1.0000744462958426 0.0202492022415603
22119819 -0.9998298206488031 0.021450231866742137
23120720 -0.9994916686415857 0.022551141235795644
24121621 -0.9993450667039193 0.022947969601234696
25122522 -0.9993447705433038 0.023889092995914765
26123423 -0.9996605815389228 0.025334442370407294
27124324 -0.9996262726919208 0.026370875216973566
28125225 -0.9993629063516174 0.027370624161965805
29126126 -0.9992964164505993 0.028149224678894358
30127027 -0.9993194646594202 0.029123608122349258
31127927 -0.9997053559498823 0.03002812396163089
32128828 -0.9995385931503474 0.03144715666541025
33129729 -0.99972048687806 0.031813037923461004
34130630 -0.9988139023676612 0.033023099959937845
35131531 -0.9987119863764014 0.03362946787222997
36132432 -0.999412654170984 0.03507191497185151
37133333 -0.9990886445122239 0.03606837614361494
38134234 -0.9991884395617469 0.03676159784988885
39135135 -0.9993479165931604 0.037964581019487166
40136036 -0.9993667220192062 0.03814715269523837
41136936 -0.998649333132653 0.03965603148666249
42137837 -0.99861978965693 0.040391990939851595
43138738 -0.9984491354787062 0.04175970780868015
44139639 -0.9991611150192337 0.04210809002728413
45140540 -0.9989184208618411 0.04352222274398919
46141441 -0.9985965684926218 0.04457779955141944
47142342 -0.9992436514027112 0.04542025392523974
48143243 -0.9983679384261989 0.04682600461304208
49144144 -0.9984992400462727 0.048021010590670855
50145045 -0.9984317419465515 0.048312200163777484
51145945 -0.99844228185558 0.0492126133487411
52146846 -0.9981247292403429 0.050692545521153265
53147747 -0.9980158526398295 0.051697333808326584
54148648 -0.9982618650427303 0.052738041125880965
55149549 -0.9982529714668668 0.05355039607655063
56150450 -0.9982016770252705 0.05431039851430132
57151351 -0.998202311306211 0.05557846029326872
58152252 -0.9974850554113802 0.05676078129370832
59153153 -0.9976621417725048 0.05744010727497588
60154054 -0.997663332760678 0.058645139394227434
61154954 -0.9976449961696274 0.059296158642732834
62155855 -0.9971747760748352 0.06057563797504486
63156756 -0.9975643654017536 0.061418263092970125
64157657 -0.9972970675845658 0.0628768029988893
65158558 -0.9971725024733493 0.06342385255240804
66159459 -0.9971723983042743 0.06461602651586378
67160360 -0.9968880700979418 0.0660293212332864
68161261 -0.996925165561182 0.06635659434207344
69162162 -0.9972888507943897 0.06770100967112351
70163063 -0.9963185097174946 0.06895443204255286
71163963 -0.9966963991736162 0.06965106537912384
72164864 -0.9960482605964337 0.07078701142219175
73165765 -0.9963552772900411 0.07211192414923703
74166666 -0.9964972569089054 0.07309161266058413
75167567 -0.9961915557806259 0.07361812346329022
76168468 -0.9959804890420765 0.07517835923000857
77169369 -0.9958709431080589 0.07634855427391289
78170270 -0.9955399652975534 0.07646617401165678
79171171 -0.9964801895239316 0.07764269080389594
80172072 -0.9957137046284006 0.0790900901812083
81172972 -0.9956010641630814 0.07988571871355207
82173873 -0.9957066665433428 0.08121440528995155
83174774 -0.9960428561668052 0.08179131212183063
84175675 -0.9954958322339098 0.0830674646476711
85176576 -0.9949935753637317 0.08443175167840561
86177477 -0.9953897938606495 0.08501516449935272
87178378 -0.9947314617133373 0.08579159849219045
88179279 -0.9949312632205658 0.08741931809082996
89180180 -0.9950643794611419 0.08814941503718356
90181081 -0.9945206779803083 0.08919942683639835
91181981 -0.9945206545935604 0.09014481548119177
92182882 -0.9941339124010984 0.09164364412093344
93183783 -0.9940058432193832 0.09220098459416787
94184684 -0.9940388783143401 0.09331042943112643
95185585 -0.9938007482955495 0.09429584493722992
96186486 -0.9931329680459369 0.09551294796347237
97187387 -0.9933284519997871 0.09678754397005625
98188288 -0.9928378819767871 0.0975106013731544
99189189 -0.9930327129923363 0.0989298939532552
100190090 -0.9933646444183005 0.09924915403262839
101190990 -0.9922569116514557 0.10080486128607401
102191891 -0.992365159736985 0.10263218501009846
103192792 -0.9921901665911866 0.10310922242859857
104193693 -0.9918714794597845 0.10433482665074767
105194594 -0.9918527994225147 0.10612805884049353
106195495 -0.9915916831719641 0.10773041749570998
107196396 -0.9911715933775156 0.1072645472530805
108197297 -0.991432617044057 0.10902416338290821
109198198 -0.9911718057522348 0.11072181556430052
110199099 -0.9908488103129062 0.11105449528784656
111200000 -0.9908555229866837 0.11197613545049749
112200900 -0.9899438296584515 0.11353910744217083
113201801 -0.9900864220617073 0.11435350032192114
114202702 -0.9902267541834727 0.11550412255695625
115203603 -0.9898696318131369 0.11714769570276601
116204504 -0.9893978432251871 0.11756494926460336
117205405 -0.9896422878702522 0.11903100229633727
118206306 -0.9892198723201423 0.11951438248465761
119207207 -0.9889930076562699 0.12096235311511866
120208108 -0.9891004674784311 0.12196303389877276
121209009 -0.9885460983842767 0.12300761495921295
122209909 -0.9886715712409322 0.1237923624013871
123210810 -0.9881930784732094 0.12468138660856255
124211711 -0.9880622251623459 0.12591942447539975
125212612 -0.9880423833990536 0.12727185704361918
126213513 -0.9875120743673259 0.1276358912904948
127214414 -0.9874496805429613 0.12982948025746388
128215315 -0.987160796294697 0.13053952336885422
129216216 -0.9869956932214025 0.13203897121318595
130217117 -0.9866731464247726 0.13205022953228782
131218018 -0.9866739257185848 0.13252950238245956
132218918 -0.9860845339027162 0.13470223891371033
133219819 -0.9862818995869919 0.13607367789007016
134220720 -0.9854736074720449 0.13621425748500327
135221621 -0.9855142293863943 0.13810493940009153
136222522 -0.9853976256258465 0.13885716106783624
137223423 -0.9849933611011794 0.13991796080535382
138224324 -0.9847382342845669 0.14051060157794462
139225225 -0.984798829629184 0.14197232099509052
140226126 -0.9833559176011745 0.14201327819264134
141227027 -0.9841129434506273 0.14303411740240501
142227927 -0.9837491979592641 0.14398013214674982
143228828 -0.9822768496897126 0.1453315313918616
144229729 -0.9826825067268625 0.14603436579394724
145230630 -0.9825416787014553 0.14778477754176408
146231531 -0.981836799648575 0.14752639909745272
147232432 -0.9820278121753886 0.14905932339886532
148233333 -0.9809077359484861 0.15065570448836946
149234234 -0.9815698194552887 0.15060270927334632
150235135 -0.9807598760616327 0.15215200695064154
151236036 -0.9807719546248242 0.1537284354293649
152236936 -0.980352978741182 0.15446148393684833
153237837 -0.9794786758990662 0.15554297583366894
154238738 -0.9789462176192532 0.15607537251949843
155239639 -0.9793917470296164 0.15812878596237973
156240540 -0.9786581209965153 0.15839511926054112
157241441 -0.9786906877752135 0.15973220178942063
158242342 -0.9783620398446249 0.16079612395170625
159243243 -0.9780214466126087 0.16220711957503922
160244144 -0.9775057143021397 0.16320504867039165
161245045 -0.9760985241846725 0.1636367068334187
162245945 -0.9764837982137509 0.16493501469044614
163246846 -0.9762714354756018 0.1653418910018916
164247747 -0.9759026981529527 0.16712951299580944
165248648 -0.9764536088859972 0.16766498682119083
166249549 -0.9752412355803651 0.16889721487390683
167250450 -0.9753455647996385 0.1695063906632523
168251351 -0.9741699074519725 0.1703892050228575
169252252 -0.9737174985565952 0.17177512237004305
170253153 -0.9732267441456603 0.17353095702644472
171254054 -0.9730226951911989 0.1734477925641772
172254954 -0.9720011881899897 0.17533564294985074
173255855 -0.9727351207217374 0.17634849425250354
174256756 -0.9723414224553042 0.17644726408569067
175257657 -0.9714185908553671 0.17854984877715874
176258558 -0.9703460454924738 0.17859388232410892
177259459 -0.9704051892688215 0.18036211599700114
178260360 -0.9709707475025279 0.18137617501508846
179261261 -0.9704341384869539 0.18233160692043007
180262162 -0.969504062088097 0.18337649867454944
181263063 -0.9695504184754495 0.18457987384328484
182263963 -0.9696982236314649 0.18572310018473814
183264864 -0.968382779961444 0.18633850484731287
184265765 -0.9684058644405054 0.1869124076026077
185266666 -0.9674610244948842 0.18808174549367898
186267567 -0.9668492118316698 0.18820497207053669
187268468 -0.9663317420466582 0.19062916213984493
188269369 -0.9665893893488627 0.1911657308803899
189270270 -0.9648567922726674 0.1932548452519845
190271171 -0.9650140837804564 0.1940387425140346
191272072 -0.964620342273946 0.19444189175971233
192272972 -0.9643522953586531 0.19520900330454827
193273873 -0.9633936558564695 0.19532806176428846
194274774 -0.9630881405606038 0.1971481344848322
195275675 -0.9632580504112684 0.19776088379193296
196276576 -0.9620744079274417 0.19949006347027196
197277477 -0.9622329402189607 0.2007990617417476
198278378 -0.9618458337998639 0.20103489970658636
199279279 -0.961734533001825 0.2019512570697345
200280180 -0.9598343789478624 0.20476231475549897
201281081 -0.9604253050260568 0.20437000148428228
202281981 -0.9588878828638249 0.20549431921116731
203282882 -0.9588902435565683 0.20625124593132235
204283783 -0.9585610350125867 0.2064121417672934
205284684 -0.95893199906467 0.20820052375690506
206285585 -0.958175740132095 0.20906131812016834
207286486 -0.95737146564722 0.21026400282067315
208287387 -0.9568123832054959 0.21113891320664932
209288288 -0.9566448869264641 0.21155718636840137
210289189 -0.9546118981735657 0.21283192167701045
211290090 -0.9552621822644309 0.21390645906120342
212290990 -0.9543973293404534 0.215051273081056
213291891 -0.9548102911156929 0.21564260489777226
214292792 -0.9534649451227867 0.21750142297146416
215293693 -0.953071953858546 0.21703349191698473
216294594 -0.9527957228691348 0.21886146697581021
217295495 -0.9514324799320076 0.2202142984377025
218296396 -0.9505574074235164 0.22008317868455077
219297297 -0.9512588999304796 0.2212739425750528
220298198 -0.9504037204576393 0.22198597677317788
221299099 -0.950384160221789 0.22238507003293057
222300000 -0.9484867973224081 0.22530955501201702
223300900 -0.9486853075017566 0.2251920518789768
224301801 -0.9481421083100854 0.22720440411524037
225302702 -0.9473551150374213 0.22787018719292504
226303603 -0.9462882920655501 0.22677481166318852
227304504 -0.9459752538885066 0.22955293023203174
228305405 -0.946160431418036 0.22986865995682737
229306306 -0.9459410801117961 0.23065126008395698
230307207 -0.9452901215386013 0.23230853434213633
231308108 -0.9439021922511226 0.23239872175204662
232309009 -0.9444754722886893 0.2338344373254247
233309909 -0.9440141140105999 0.2350229590135981
234310810 -0.9426751179090469 0.23496116901847716
235311711 -0.9427338557212008 0.23603204856371557
236312612 -0.9408305035201475 0.23754376425923843
237313513 -0.9411880121818649 0.2389175661542623
238314414 -0.9403739194305558 0.23877497331529837
239315315 -0.9407553366348574 0.2391543653952346
240316216 -0.939181570628245 0.239622817657572
241317117 -0.9394294048344333 0.24246923607974397
242318018 -0.9377845536033217 0.24349634808139034
243318918 -0.9371143220468335 0.2441465725286607
244319819 -0.9369007725620937 0.243749269171256
245320720 -0.9369144192042979 0.24427056554490012
246321621 -0.9366585427417065 0.24576846801172333
247322522 -0.9354820704854959 0.24727146519182394
248323423 -0.9346454528145207 0.24799515160117133
249324324 -0.9342380026905044 0.2485331675520419
250325225 -0.9339395348413388 0.250245385646391
251326126 -0.9332913493343535 0.25049187317891536
252327027 -0.9319290837831751 0.25238724270801527
253327927 -0.9318939662343914 0.25265477598160163
254328828 -0.9313535823504173 0.2522492666702657
255329729 -0.9306688351382681 0.25450890068868837
256330630 -0.9298744199867152 0.2544887047305772
257331531 -0.9289456969857809 0.25536885780185425
258332432 -0.9276646102022267 0.25674992751434683
259333333 -0.9279704959815868 0.2565610680798117
260334234 -0.9264218676609358 0.25928558008626856
261335135 -0.925265805407387 0.2599743293395512
262336036 -0.9262159003174092 0.25853211232495266
263336936 -0.9256166559065521 0.2607689919998337
264337837 -0.9253439479136067 0.2610924092506157
265338738 -0.9242805980516245 0.26209409955658425
266339639 -0.9236817120282963 0.26300964215509653
267340540 -0.9230190271694484 0.2643576009479906
268341441 -0.9220643812255189 0.2657221143590274
269342342 -0.9217628326527985 0.26567693799157766
270343243 -0.921538882908597 0.2664178006139218
271344144 -0.9205648815749613 0.2671307506289756
272345045 -0.9200866177311091 0.2669961928402259
273345945 -0.9195880007615308 0.2676155144557612
274346846 -0.919202433574247 0.2682987361326368
275347747 -0.9201113053295878 0.2673173819264346
276348648 -0.9178382426145594 0.2715494371179206
277349549 -0.9181840405012892 0.2701349845500337
278350450 -0.9168019360368989 0.2732358052057599
279351351 -0.9150044337233589 0.2736022470543881
280352252 -0.9151521181214246 0.27330180341420646
281353153 -0.9135753208116597 0.27660981322238753
282354054 -0.914004197641991 0.2726800365886263
283354954 -0.9145218000302102 0.27593736803929203
284355855 -0.911993743401374 0.27583379114894624
285356756 -0.9125321268864182 0.27720355655358375
286357657 -0.9112583600261609 0.2791935204565809
287358558 -0.9108073446061098 0.278423860937539
288359459 -0.9102265452702015 0.2797177487683399
289360360 -0.9083679827037757 0.2817638311610867
290361261 -0.9079070756925959 0.28086114211937924
291362162 -0.9077680451370259 0.2845667037157244
292363063 -0.9078500153405793 0.2817463239506399
293363963 -0.908515993532929 0.2827926437962619
294364864 -0.9062676151093488 0.2837223445106886
295365765 -0.9054668478024602 0.2861039811602156
296366666 -0.9053741390518467 0.28597203611063904
297367567 -0.9036986783814551 0.28638539285484665
298368468 -0.9036917683005387 0.2888706678526461
299369369 -0.9023430871907583 0.2885708292515476
300370270 -0.902169803713368 0.2904770970830798
301371171 -0.9000815289053498 0.2899285090112904
302372072 -0.9000523283017801 0.2904350329949169
303372972 -0.9012595799057737 0.2904218372018188
304373873 -0.8990507128395605 0.2927339050957554
305374774 -0.899850947873298 0.2921707039458699
306375675 -0.8970972799846416 0.2933270595363228
307376576 -0.898616971624043 0.2949227742358886
308377477 -0.8952326625567443 0.29530575550333166
309378378 -0.8959080784565632 0.29664358409500724
310379279 -0.8958321247756424 0.2964106945681322
311380180 -0.895832236406191 0.298243514354986
312381081 -0.8940996190628312 0.2979724402774397
313381981 -0.8940271475327456 0.2993157834149556
314382882 -0.8920264671769998 0.2976793117102151
315383783 -0.8917949920719476 0.29896351593138404
316384684 -0.8917827631119414 0.30061876178141633
317385585 -0.8901554947447943 0.3014486355735762
318386486 -0.8887372253981461 0.302234277864606
319387387 -0.8894725163513889 0.30420679274319024
320388288 -0.8894702128202315 0.3028765507839668
321389189 -0.8884721677277131 0.30384104158645964
322390090 -0.8873049296666519 0.3054309837511734
323390990 -0.8870580239439432 0.30463006279467736
324391891 -0.886831021249623 0.30589020692527763
325392792 -0.8854314713361975 0.3068199773300289
326393693 -0.8847192938467086 0.3085088119684606
327394594 -0.8856024959346451 0.30674079198647575
328395495 -0.886189726069854 0.30805009070455586
329396396 -0.8854279416394185 0.30729838421673616
330397297 -0.8845627271345727 0.30694213858249425
331398198 -0.8852601675877715 0.3069739322358366
332399099 -0.8835618874809864 0.3097261205288414
333400000 -0.8834446737766505 0.30676985585079214
334400900 -0.8829469664261385 0.3088109700334765
335401801 -0.8830789049446089 0.30766418670335305
336402702 -0.8827644348103534 0.3075940322407801
337403603 -0.8824438720025222 0.30925844208822856
338404504 -0.8822035911695527 0.30862117065780803
339405405 -0.8808504836276335 0.31166953103613254
340406306 -0.8811928409458191 0.31363942246898396
341407207 -0.8784846884621788 0.3130286341960369
342408108 -0.8780410899635431 0.3139737092113903
343409009 -0.8771762471694571 0.3155319853569514
344409909 -0.8766415941406264 0.31534256029351787
345410810 -0.8728328938551188 0.3158803462039394
346411711 -0.875136006280363 0.3172642001801829
347412612 -0.8747571115605107 0.3178749350751817
348413513 -0.8727730393475066 0.31793682354889613
349414414 -0.8719180261821948 0.3189941350589354
350415315 -0.8729349232961695 0.31959503337573203
351416216 -0.8705099119568138 0.3210305415881075
352417117 -0.8722378655098747 0.3217763665269325
353418018 -0.8697433392924389 0.321887648924496
354418918 -0.8686434897666037 0.32278442135092505
355419819 -0.8683033396252396 0.32339970330224205
356420720 -0.8672323427823617 0.32410908933918825
357421621 -0.8676739307370127 0.32575959785903036
358422522 -0.8662701522232887 0.32357460363681695
359423423 -0.8642031576183945 0.32614568561521257
360424324 -0.8646945089550052 0.3264661991332132
361425225 -0.8637478470620862 0.3276542530401981
362426126 -0.8607626454933874 0.3272840386389884
363427027 -0.8626954570420126 0.32761072271703445
364427927 -0.8612048624920317 0.32924883411650546
365428828 -0.8600807064451907 0.3286481023674995
366429729 -0.8597247108274784 0.3308177275374218
367430630 -0.8605368787309572 0.3319151060546734
368431531 -0.8583011645004462 0.3327538448667987
369432432 -0.8568062718193193 0.33113084716033336
370433333 -0.8570305398147351 0.3319639345958028
371434234 -0.8566612180256072 0.3324481722621792
372435135 -0.857357272087787 0.33199924709194206
373436036 -0.8546761922040923 0.33477544518786745
374436936 -0.8538534763001161 0.33569361887600946
375437837 -0.8544180962310415 0.3349205209463227
376438738 -0.8539659364854217 0.33464327144615164
377439639 -0.8527134639606733 0.3368439475142054
378440540 -0.851812299234276 0.33576573513481406
379441441 -0.852204699120986 0.33722982756656494
380442342 -0.8496345283894228 0.33869382433214684
381443243 -0.8508250292214473 0.3387025206755496
382444144 -0.8484322681759651 0.3388615209922207
383445045 -0.848773928908368 0.3387652556236737
384445945 -0.8484470571693339 0.34093278132267685
385446846 -0.8485107701810837 0.3389383625964715
386447747 -0.8462184553851146 0.34115809147789783
387448648 -0.8453192282259242 0.34152042302301083
388449549 -0.8455495160784796 0.34251712428920283
389450450 -0.8453142448757068 0.34284123707886627
390451351 -0.8433087117490986 0.3436089941960273
391452252 -0.8444067614892151 0.34382671727553005
392453153 -0.8434611625730049 0.3437358541908814
393454054 -0.8436031070213632 0.3441059721878026
394454954 -0.8412920472154324 0.3457438789607868
395455855 -0.8407426199472463 0.3454411185534392
396456756 -0.840111632220308 0.3466809784921451
397457657 -0.8404955738590353 0.3473712051788824
398458558 -0.8391546179947355 0.3465833086932665
399459459 -0.8375707029305847 0.3479489823697837
400460360 -0.8381339323830264 0.3479847490881123
401461261 -0.8390829324660815 0.3485461755645705
402462162 -0.836544784755113 0.3495535974665036
